date Thu Feb 13 09:40:19 2020
base hex  timestamps absolute
no internal events logged
   0.000000 3  28A             Rx   d 8 1C 00 00 00 F2 FF FF FF
   0.002057 3  1BE             Rx   d 6 FC FF EE FF 4C 01
   0.003092 3  1CD             Rx   d 6 00 00 1E 00 ED 03
   0.004194 3  2CD             Rx   d 6 00 00 01 00 01 00
   0.005102 3  1BA             Rx   d 4 00 00 00 00
   0.005103 3  3BA             Rx   d 2 00 00
   0.009846 3  28A             Rx   d 8 1C 00 00 00 F2 FF FF FF
   0.012061 3  1BE             Rx   d 6 FC FF EE FF 4C 01
   0.013225 3  1CD             Rx   d 6 00 00 1E 00 ED 03
   0.014166 3  2CD             Rx   d 6 00 00 02 00 03 00
   0.015069 3  1BA             Rx   d 4 00 00 00 00
   0.015070 3  3BA             Rx   d 2 00 00
   0.021543 3  28A             Rx   d 8 1C 00 00 00 F2 FF FF FF
   0.022312 3  1BE             Rx   d 6 FD FF E5 FF 4C 01
   0.023332 3  1CD             Rx   d 6 00 00 1D 00 F3 03
   0.023332 3  2CD             Rx   d 6 02 00 01 00 00 00
   0.024517 3  1BA             Rx   d 4 00 00 00 00
   0.025479 3  3BA             Rx   d 2 00 00
   0.032255 3  28A             Rx   d 8 1C 00 00 00 F2 FF FF FF
   0.033287 3  1BE             Rx   d 6 FD FF E5 FF 4C 01
   0.034305 3  1CD             Rx   d 6 00 00 1D 00 F3 03
   0.034305 3  2CD             Rx   d 6 FF FF 00 00 00 00
   0.035311 3  1BA             Rx   d 4 00 00 00 00
   0.035311 3  3BA             Rx   d 2 00 00
   0.042237 3  1BE             Rx   d 6 FD FF E5 FF 4C 01
   0.043281 3  1CD             Rx   d 6 03 00 1D 00 EF 03
   0.043282 3  2CD             Rx   d 6 00 00 00 00 01 00
   0.044745 3  1BA             Rx   d 4 00 00 00 00
   0.045833 3  28A             Rx   d 8 1C 00 00 00 F2 FF FF FF
   0.045834 3  3BA             Rx   d 2 00 00
   0.052299 3  1BE             Rx   d 6 FF FF DF FF 4C 01
   0.053285 3  1CD             Rx   d 6 02 00 1C 00 EC 03
   0.053285 3  2CD             Rx   d 6 00 00 01 00 02 00
   0.054449 3  28A             Rx   d 8 1C 00 00 00 F2 FF FF FF
   0.055458 3  1BA             Rx   d 4 FF FF FF FF
   0.055459 3  3BA             Rx   d 2 00 00
   0.062406 3  1BE             Rx   d 6 FF FF DF FF 4C 01
   0.063255 3  1CD             Rx   d 6 02 00 1C 00 E6 03
   0.064285 3  2CD             Rx   d 6 01 00 00 00 01 00
   0.065296 3  1BA             Rx   d 4 00 00 00 00
   0.065297 3  3BA             Rx   d 2 00 00
   0.068009 3  28A             Rx   d 8 1C 00 00 00 F2 FF FF FF
   0.072242 3  1BE             Rx   d 6 01 00 DF FF 4C 01
   0.073289 3  1CD             Rx   d 6 03 00 1A 00 E8 03
   0.073289 3  2CD             Rx   d 6 03 00 04 00 01 00
   0.074436 3  1BA             Rx   d 4 00 00 00 00
   0.075407 3  3BA             Rx   d 2 00 00
   0.077629 3  28A             Rx   d 8 1C 00 00 00 F2 FF FF FF
   0.082268 3  1BE             Rx   d 6 01 00 DF FF 4C 01
   0.083275 3  1CD             Rx   d 6 03 00 19 00 E3 03
   0.083275 3  2CD             Rx   d 6 00 00 00 00 FF FF
   0.084238 3  1BA             Rx   d 4 FF FF FF FF
   0.085227 3  3BA             Rx   d 2 00 00
   0.087691 3  28A             Rx   d 8 1C 00 00 00 F2 FF FF FF
   0.092343 3  1BE             Rx   d 6 03 00 E2 FF 4C 01
   0.093354 3  1CD             Rx   d 6 03 00 19 00 E3 03
   0.093355 3  2CD             Rx   d 6 00 00 00 00 00 00
   0.094371 3  1BA             Rx   d 4 00 00 00 00
   0.095358 3  3BA             Rx   d 2 00 00
   0.097613 3  28A             Rx   d 8 1C 00 00 00 E4 FF FF FF
   0.102366 3  1BE             Rx   d 6 03 00 E2 FF 4C 01
   0.103378 3  1CD             Rx   d 6 01 00 1A 00 EE 03
   0.103378 3  2CD             Rx   d 6 00 00 00 00 01 00
   0.104576 3  1BA             Rx   d 4 FF FF FF FF
   0.105610 3  3BA             Rx   d 2 00 00
   0.107583 3  28A             Rx   d 8 1C 00 00 00 E4 FF FF FF
   0.112510 3  1BE             Rx   d 6 01 00 E5 FF 4C 01
   0.113408 3  1CD             Rx   d 6 01 00 1A 00 E2 03
   0.113408 3  2CD             Rx   d 6 00 00 00 00 01 00
   0.114488 3  1BA             Rx   d 4 FF FF FF FF
   0.115486 3  3BA             Rx   d 2 00 00
   0.117611 3  28A             Rx   d 8 1C 00 00 00 E4 FF FF FF
   0.122431 3  1BE             Rx   d 6 01 00 E5 FF 4C 01
   0.123425 3  1CD             Rx   d 6 01 00 1A 00 E2 03
   0.123426 3  2CD             Rx   d 6 00 00 FF FF 01 00
   0.124448 3  1BA             Rx   d 4 00 00 00 00
   0.125440 3  3BA             Rx   d 2 00 00
   0.127538 3  28A             Rx   d 8 1C 00 00 00 E4 FF FF FF
   0.132447 3  1BE             Rx   d 6 01 00 E5 FF 4C 01
   0.133425 3  1CD             Rx   d 6 00 00 1A 00 EF 03
   0.133426 3  2CD             Rx   d 6 00 00 00 00 00 00
   0.134641 3  1BA             Rx   d 4 FF FF FF FF
   0.135651 3  3BA             Rx   d 2 00 00
   0.137452 3  28A             Rx   d 8 1C 00 00 00 E4 FF FF FF
   0.142494 3  1BE             Rx   d 6 FB FF E7 FF 4C 01
   0.143502 3  1CD             Rx   d 6 00 00 1A 00 EF 03
   0.143503 3  2CD             Rx   d 6 02 00 FE FF 00 00
   0.144507 3  1BA             Rx   d 4 FF FF FF FF
   0.145499 3  3BA             Rx   d 2 00 00
   0.147538 3  28A             Rx   d 8 1C 00 00 00 E4 FF FF FF
   0.152512 3  1BE             Rx   d 6 FB FF E7 FF 4C 01
   0.153548 3  1CD             Rx   d 6 01 00 1B 00 E8 03
   0.153548 3  2CD             Rx   d 6 00 00 00 00 00 00
   0.154643 3  1BA             Rx   d 4 FF FF FF FF
   0.155641 3  3BA             Rx   d 2 00 00
   0.158916 3  28A             Rx   d 8 1C 00 00 00 E4 FF FF FF
   0.162548 3  1BE             Rx   d 6 FB FF E8 FF 4C 01
   0.163577 3  1CD             Rx   d 6 02 00 1C 00 EF 03
   0.163578 3  2CD             Rx   d 6 01 00 00 00 00 00
   0.164636 3  1BA             Rx   d 4 FF FF FF FF
   0.165614 3  3BA             Rx   d 2 00 00
   0.168657 3  28A             Rx   d 8 0E 00 00 00 E4 FF FF FF
   0.172583 3  1BE             Rx   d 6 FB FF E8 FF 4C 01
   0.173586 3  1CD             Rx   d 6 02 00 1C 00 EF 03
   0.173587 3  2CD             Rx   d 6 00 00 FE FF 00 00
   0.174683 3  1BA             Rx   d 4 00 00 00 00
   0.175676 3  3BA             Rx   d 2 00 00
   0.181106 3  28A             Rx   d 8 0E 00 00 00 E4 FF FF FF
   0.182627 3  1BE             Rx   d 6 01 00 E8 FF 4C 01
   0.183625 3  1CD             Rx   d 6 02 00 1D 00 EB 03
   0.183625 3  2CD             Rx   d 6 00 00 00 00 00 00
   0.184646 3  1BA             Rx   d 4 FF FF FF FF
   0.185646 3  3BA             Rx   d 2 00 00
   0.190724 3  28A             Rx   d 8 0E 00 00 00 E4 FF FF FF
   0.192643 3  1BE             Rx   d 6 01 00 E8 FF 4C 01
   0.193672 3  1CD             Rx   d 6 02 00 1D 00 EB 03
   0.193673 3  2CD             Rx   d 6 00 00 06 00 00 00
   0.194672 3  1BA             Rx   d 4 00 00 00 00
   0.194672 3  3BA             Rx   d 2 00 00
   0.202705 3  1BE             Rx   d 6 06 00 E7 FF 4C 01
   0.203683 3  1CD             Rx   d 6 01 00 1E 00 F0 03
   0.203684 3  2CD             Rx   d 6 01 00 02 00 00 00
   0.204700 3  28A             Rx   d 8 0E 00 00 00 E4 FF FF FF
   0.204700 3  1BA             Rx   d 4 00 00 00 00
   0.205694 3  3BA             Rx   d 2 00 00
   0.212664 3  1BE             Rx   d 6 06 00 E7 FF 4C 01
   0.213675 3  1CD             Rx   d 6 03 00 1E 00 EB 03
   0.213676 3  2CD             Rx   d 6 00 00 00 00 00 00
   0.214643 3  1BA             Rx   d 4 00 00 00 00
   0.214644 3  3BA             Rx   d 2 00 00
   0.215627 3  28A             Rx   d 8 0E 00 00 00 E4 FF FF FF
   0.222710 3  1BE             Rx   d 6 06 00 E7 FF 4C 01
   0.223796 3  1CD             Rx   d 6 03 00 1C 00 EB 03
   0.223797 3  2CD             Rx   d 6 00 00 00 00 00 00
   0.224820 3  1BA             Rx   d 4 FF FF FF FF
   0.224820 3  3BA             Rx   d 2 00 00
   0.228550 3  28A             Rx   d 8 0E 00 00 00 E4 FF FF FF
   0.232785 3  1BE             Rx   d 6 03 00 E6 FF 4C 01
   0.233792 3  1CD             Rx   d 6 03 00 1A 00 ED 03
   0.233792 3  2CD             Rx   d 6 01 00 00 00 00 00
   0.234799 3  1BA             Rx   d 4 00 00 00 00
   0.234800 3  3BA             Rx   d 2 00 00
   0.237512 3  28A             Rx   d 8 0E 00 00 00 E4 FF FF FF
   0.242756 3  1CD             Rx   d 6 02 00 1B 00 EE 03
   0.243775 3  1BE             Rx   d 6 03 00 E6 FF 4C 01
   0.243776 3  2CD             Rx   d 6 00 00 FE FF 00 00
   0.244777 3  1BA             Rx   d 4 00 00 00 00
   0.244777 3  3BA             Rx   d 2 00 00
   0.250735 3  28A             Rx   d 8 0E 00 00 00 E4 FF FF FF
   0.252975 3  1BE             Rx   d 6 FD FF E4 FF 4C 01
   0.253970 3  1CD             Rx   d 6 02 00 1B 00 EE 03
   0.253970 3  2CD             Rx   d 6 00 00 FF FF 00 00
   0.254948 3  1BA             Rx   d 4 00 00 00 00
   0.254949 3  3BA             Rx   d 2 00 00
   0.260815 3  28A             Rx   d 8 0E 00 00 00 E4 FF FF FF
   0.262848 3  1CD             Rx   d 6 01 00 19 00 E9 03
   0.263828 3  1BE             Rx   d 6 FD FF E4 FF 4C 01
   0.263828 3  2CD             Rx   d 6 00 00 00 00 00 00
   0.264797 3  1BA             Rx   d 4 00 00 00 00
   0.264797 3  3BA             Rx   d 2 00 00
   0.272125 3  28A             Rx   d 8 0E 00 00 00 E4 FF FF FF
   0.273094 3  1CD             Rx   d 6 02 00 1B 00 EC 03
   0.273095 3  1BE             Rx   d 6 FC FF E2 FF 4C 01
   0.273096 3  2CD             Rx   d 6 00 00 02 00 00 00
   0.274433 3  1BA             Rx   d 4 00 00 00 00
   0.275402 3  3BA             Rx   d 2 00 00
   0.281783 3  28A             Rx   d 8 0E 00 00 00 E4 FF FF FF
   0.282812 3  1BE             Rx   d 6 FC FF E2 FF 4C 01
   0.283827 3  1CD             Rx   d 6 02 00 19 00 EA 03
   0.283828 3  2CD             Rx   d 6 00 00 00 00 00 00
   0.284829 3  1BA             Rx   d 4 00 00 00 00
   0.284830 3  3BA             Rx   d 2 00 00
   0.292023 3  28A             Rx   d 8 0E 00 00 00 E4 FF FF FF
   0.293044 3  1CD             Rx   d 6 03 00 19 00 E9 03
   0.294061 3  1BE             Rx   d 6 FE FF E3 FF 4C 01
   0.294062 3  2CD             Rx   d 6 FF FF 01 00 01 00
   0.295072 3  1BA             Rx   d 4 00 00 00 00
   0.295073 3  3BA             Rx   d 2 00 00
   0.301747 3  28A             Rx   d 8 0E 00 00 00 E4 FF FF FF
   0.302723 3  1CD             Rx   d 6 03 00 1A 00 EA 03
   0.303712 3  1BE             Rx   d 6 FE FF E3 FF 4C 01
   0.303713 3  2CD             Rx   d 6 01 00 02 00 01 00
   0.304768 3  1BA             Rx   d 4 00 00 00 00
   0.304768 3  3BA             Rx   d 2 00 00
   0.311870 3  28A             Rx   d 8 0E 00 00 00 E4 FF FF FF
   0.312849 3  1CD             Rx   d 6 03 00 1A 00 EA 03
   0.313862 3  2CD             Rx   d 6 00 00 00 00 01 00
   0.313863 3  1BE             Rx   d 6 FE FF E3 FF 4C 01
   0.314877 3  1BA             Rx   d 4 00 00 00 00
   0.314878 3  3BA             Rx   d 2 00 00
   0.321818 3  28A             Rx   d 8 0E 00 00 00 E4 FF FF FF
   0.322966 3  1CD             Rx   d 6 01 00 1B 00 EB 03
   0.323886 3  1BE             Rx   d 6 01 00 E6 FF 4C 01
   0.323887 3  2CD             Rx   d 6 01 00 02 00 FF FF
   0.324915 3  1BA             Rx   d 4 00 00 00 00
   0.324915 3  3BA             Rx   d 2 00 00
   0.331841 3  28A             Rx   d 8 0E 00 00 00 E4 FF FF FF
   0.332894 3  1CD             Rx   d 6 01 00 1B 00 EB 03
   0.333868 3  2CD             Rx   d 6 01 00 00 00 FF FF
   0.333869 3  1BE             Rx   d 6 01 00 E6 FF 4C 01
   0.334876 3  1BA             Rx   d 4 FF FF FF FF
   0.334877 3  3BA             Rx   d 2 00 00
   0.342127 3  28A             Rx   d 8 0E 00 00 00 E4 FF FF FF
   0.343272 3  1CD             Rx   d 6 01 00 1B 00 EB 03
   0.343273 3  2CD             Rx   d 6 00 00 01 00 00 00
   0.344170 3  1BE             Rx   d 6 02 00 EA FF 4C 01
   0.345098 3  1BA             Rx   d 4 FF FF FF FF
   0.345099 3  3BA             Rx   d 2 00 00
   0.351877 3  28A             Rx   d 8 0E 00 00 00 E4 FF FF FF
   0.352904 3  1CD             Rx   d 6 00 00 1B 00 ED 03
   0.353918 3  2CD             Rx   d 6 FF FF 01 00 01 00
   0.353919 3  1BE             Rx   d 6 02 00 EA FF 4C 01
   0.354875 3  1BA             Rx   d 4 00 00 00 00
   0.354875 3  3BA             Rx   d 2 00 00
   0.362717 3  1CD             Rx   d 6 00 00 1D 00 EB 03
   0.363835 3  2CD             Rx   d 6 00 00 02 00 03 00
   0.363836 3  1BE             Rx   d 6 01 00 ED FF 4C 01
   0.364833 3  1BA             Rx   d 4 00 00 00 00
   0.364834 3  3BA             Rx   d 2 00 00
   0.365865 3  28A             Rx   d 8 0E 00 00 00 E4 FF FF FF
   0.372788 3  1CD             Rx   d 6 00 00 1D 00 EF 03
   0.373833 3  2CD             Rx   d 6 00 00 FF FF 01 00
   0.373834 3  1BE             Rx   d 6 01 00 ED FF 4C 01
   0.374819 3  1BA             Rx   d 4 00 00 00 00
   0.374820 3  3BA             Rx   d 2 00 00
   0.375795 3  28A             Rx   d 8 0E 00 00 00 F2 FF FF FF
   0.382814 3  1CD             Rx   d 6 00 00 1D 00 EF 03
   0.383765 3  2CD             Rx   d 6 01 00 03 00 01 00
   0.383765 3  1BE             Rx   d 6 FF FF EC FF 4C 01
   0.384773 3  1BA             Rx   d 4 00 00 00 00
   0.385807 3  3BA             Rx   d 2 00 00
   0.388615 3  28A             Rx   d 8 0E 00 00 00 F2 FF FF FF
   0.392860 3  1CD             Rx   d 6 01 00 1C 00 EB 03
   0.393847 3  2CD             Rx   d 6 00 00 01 00 00 00
   0.393847 3  1BE             Rx   d 6 FF FF EC FF 4C 01
   0.394883 3  1BA             Rx   d 4 00 00 00 00
   0.394884 3  3BA             Rx   d 2 00 00
   0.398627 3  28A             Rx   d 8 00 00 00 00 F2 FF FF FF
   0.402873 3  1CD             Rx   d 6 01 00 1C 00 EB 03
   0.403889 3  2CD             Rx   d 6 00 00 00 00 FF FF
   0.403890 3  1BE             Rx   d 6 FF FF EC FF 4C 01
   0.404887 3  1BA             Rx   d 4 00 00 00 00
   0.405906 3  3BA             Rx   d 2 00 00
   0.410732 3  28A             Rx   d 8 00 00 00 00 F2 FF FF FF
   0.412919 3  1CD             Rx   d 6 00 00 1C 00 EC 03
   0.413918 3  2CD             Rx   d 6 FF FF 00 00 02 00
   0.413918 3  1BE             Rx   d 6 FD FF E3 FF 4C 01
   0.414878 3  1BA             Rx   d 4 00 00 00 00
   0.414878 3  3BA             Rx   d 2 00 00
   0.420765 3  28A             Rx   d 8 00 00 00 00 F2 FF FF FF
   0.422866 3  1CD             Rx   d 6 01 00 1D 00 EF 03
   0.423970 3  2CD             Rx   d 6 00 00 FE FF FF FF
   0.423971 3  1BE             Rx   d 6 FD FF E3 FF 4C 01
   0.424949 3  1BA             Rx   d 4 00 00 00 00
   0.424949 3  3BA             Rx   d 2 00 00
   0.433034 3  1CD             Rx   d 6 03 00 1B 00 EA 03
   0.433961 3  2CD             Rx   d 6 FE FF FF FF 02 00
   0.433962 3  1BE             Rx   d 6 FD FF DB FF 4C 01
   0.433962 3  28A             Rx   d 8 00 00 00 00 F2 FF FF FF
   0.434986 3  1BA             Rx   d 4 00 00 00 00
   0.434987 3  3BA             Rx   d 2 00 00
   0.442802 3  1CD             Rx   d 6 03 00 1A 00 E9 03
   0.443799 3  2CD             Rx   d 6 00 00 01 00 01 00
   0.443800 3  1BE             Rx   d 6 FD FF DB FF 4C 01
   0.444913 3  28A             Rx   d 8 00 00 00 00 F2 FF FF FF
   0.444914 3  1BA             Rx   d 4 00 00 00 00
   0.444915 3  3BA             Rx   d 2 00 00
   0.452953 3  1CD             Rx   d 6 02 00 1B 00 EC 03
   0.454076 3  2CD             Rx   d 6 00 00 FF FF 00 00
   0.454076 3  1BE             Rx   d 6 FF FF DA FF 4C 01
   0.455084 3  1BA             Rx   d 4 FF FF FF FF
   0.455084 3  3BA             Rx   d 2 00 00
   0.456103 3  28A             Rx   d 8 00 00 00 00 F2 FF FF FF
   0.463155 3  1CD             Rx   d 6 03 00 1A 00 EC 03
   0.464110 3  2CD             Rx   d 6 00 00 00 00 01 00
   0.464111 3  1BE             Rx   d 6 FF FF DA FF 4C 01
   0.465073 3  1BA             Rx   d 4 FF FF FF FF
   0.465073 3  3BA             Rx   d 2 00 00
   0.465074 3  28A             Rx   d 8 00 00 00 00 F2 FF FF FF
   0.472924 3  1CD             Rx   d 6 02 00 19 00 EC 03
   0.473865 3  2CD             Rx   d 6 00 00 02 00 00 00
   0.473866 3  1BE             Rx   d 6 00 00 E0 FF 4C 01
   0.474841 3  1BA             Rx   d 4 00 00 00 00
   0.474842 3  3BA             Rx   d 2 00 00
   0.478690 3  28A             Rx   d 8 00 00 00 00 F2 FF FF FF
   0.483012 3  1CD             Rx   d 6 02 00 19 00 EC 03
   0.484015 3  2CD             Rx   d 6 01 00 01 00 00 00
   0.484016 3  1BE             Rx   d 6 00 00 E0 FF 4C 01
   0.484954 3  1BA             Rx   d 4 00 00 00 00
   0.485919 3  3BA             Rx   d 2 00 00
   0.488204 3  28A             Rx   d 8 00 00 00 00 F2 FF FF FF
   0.492971 3  1CD             Rx   d 6 03 00 1C 00 EB 03
   0.493959 3  2CD             Rx   d 6 01 00 00 00 01 00
   0.493959 3  1BE             Rx   d 6 00 00 E0 FF 4C 01
   0.494874 3  1BA             Rx   d 4 FF FF FF FF
   0.495855 3  3BA             Rx   d 2 00 00
   0.501829 3  28A             Rx   d 8 00 00 00 00 F2 FF FF FF
   0.502880 3  1CD             Rx   d 6 02 00 1C 00 EC 03
   0.503866 3  2CD             Rx   d 6 01 00 01 00 00 00
   0.503867 3  1BE             Rx   d 6 00 00 E8 FF 4C 01
   0.504868 3  1BA             Rx   d 4 FF FF FF FF
   0.504868 3  3BA             Rx   d 2 00 00
   0.512035 3  28A             Rx   d 8 00 00 00 00 F2 FF FF FF
   0.512808 3  1CD             Rx   d 6 00 00 1C 00 ED 03
   0.513822 3  2CD             Rx   d 6 01 00 01 00 00 00
   0.513823 3  1BE             Rx   d 6 00 00 E8 FF 4C 01
   0.514867 3  1BA             Rx   d 4 00 00 00 00
   0.514868 3  3BA             Rx   d 2 00 00
   0.522884 3  1CD             Rx   d 6 00 00 1C 00 ED 03
   0.523874 3  2CD             Rx   d 6 00 00 01 00 00 00
   0.523875 3  1BE             Rx   d 6 FF FF ED FF 4C 01
   0.524837 3  1BA             Rx   d 4 00 00 00 00
   0.525707 3  3BA             Rx   d 2 00 00
   0.525707 3  28A             Rx   d 8 00 00 00 00 F2 FF FF FF
   0.532906 3  1CD             Rx   d 6 00 00 1C 00 EB 03
   0.533918 3  2CD             Rx   d 6 01 00 02 00 00 00
   0.533937 3  1BE             Rx   d 6 FF FF ED FF 4C 01
   0.534929 3  1BA             Rx   d 4 00 00 00 00
   0.534930 3  28A             Rx   d 8 F2 FF FF FF F2 FF FF FF
   0.536115 3  3BA             Rx   d 2 00 00
   0.543063 3  1CD             Rx   d 6 00 00 1C 00 ED 03
   0.544071 3  2CD             Rx   d 6 01 00 00 00 00 00
   0.544071 3  1BE             Rx   d 6 FF FF EE FF 4C 01
   0.545124 3  1BA             Rx   d 4 00 00 00 00
   0.546070 3  3BA             Rx   d 2 00 00
   0.549256 3  28A             Rx   d 8 F2 FF FF FF F2 FF FF FF
   0.553086 3  1CD             Rx   d 6 00 00 1E 00 EE 03
   0.554115 3  2CD             Rx   d 6 00 00 00 00 00 00
   0.554116 3  1BE             Rx   d 6 FF FF EE FF 4C 01
   0.555116 3  1BA             Rx   d 4 FF FF FF FF
   0.555116 3  3BA             Rx   d 2 00 00
   0.558186 3  28A             Rx   d 8 F2 FF FF FF F2 FF FF FF
   0.562969 3  1CD             Rx   d 6 03 00 1C 00 EB 03
   0.563747 3  2CD             Rx   d 6 00 00 FF FF FF FF
   0.563748 3  1BE             Rx   d 6 FF FF E7 FF 4C 01
   0.564930 3  1BA             Rx   d 4 00 00 00 00
   0.564931 3  3BA             Rx   d 2 00 00
   0.571367 3  28A             Rx   d 8 F2 FF FF FF F2 FF FF FF
   0.573087 3  1CD             Rx   d 6 03 00 1C 00 EC 03
   0.574096 3  2CD             Rx   d 6 00 00 00 00 00 00
   0.574097 3  1BE             Rx   d 6 FF FF E7 FF 4C 01
   0.574998 3  1BA             Rx   d 4 FF FF FF FF
   0.574999 3  3BA             Rx   d 2 00 00
   0.580263 3  28A             Rx   d 8 F2 FF FF FF 00 00 00 00
   0.583844 3  1CD             Rx   d 6 03 00 1C 00 EC 03
   0.584819 3  1BE             Rx   d 6 FF FF E7 FF 4C 01
   0.584819 3  2CD             Rx   d 6 01 00 FE FF FF FF
   0.584820 3  1BA             Rx   d 4 00 00 00 00
   0.585831 3  3BA             Rx   d 2 00 00
   0.592878 3  28A             Rx   d 8 F2 FF FF FF 00 00 00 00
   0.593885 3  1CD             Rx   d 6 02 00 1B 00 ED 03
   0.593886 3  2CD             Rx   d 6 00 00 02 00 02 00
   0.594884 3  1BE             Rx   d 6 FF FF DF FF 4C 01
   0.594885 3  1BA             Rx   d 4 00 00 00 00
   0.594885 3  3BA             Rx   d 2 00 00
   0.602803 3  28A             Rx   d 8 F2 FF FF FF 00 00 00 00
   0.603959 3  1BE             Rx   d 6 FF FF DF FF 4C 01
   0.604886 3  1CD             Rx   d 6 02 00 19 00 EF 03
   0.604886 3  2CD             Rx   d 6 00 00 03 00 FF FF
   0.604887 3  1BA             Rx   d 4 00 00 00 00
   0.605955 3  3BA             Rx   d 2 00 00
   0.613248 3  1CD             Rx   d 6 02 00 1B 00 E7 03
   0.614178 3  1BE             Rx   d 6 FE FF DB FF 4C 01
   0.615212 3  2CD             Rx   d 6 01 00 02 00 00 00
   0.615213 3  1BA             Rx   d 4 FF FF FF FF
   0.615214 3  3BA             Rx   d 2 00 00
   0.615214 3  28A             Rx   d 8 F2 FF FF FF 00 00 00 00
   0.623155 3  1CD             Rx   d 6 02 00 1B 00 EB 03
   0.624143 3  2CD             Rx   d 6 03 00 03 00 00 00
   0.624144 3  1BE             Rx   d 6 FE FF DB FF 4C 01
   0.625141 3  28A             Rx   d 8 00 00 00 00 00 00 00 00
   0.625142 3  1BA             Rx   d 4 00 00 00 00
   0.625142 3  3BA             Rx   d 2 00 00
   0.633233 3  1CD             Rx   d 6 02 00 1A 00 EC 03
   0.634258 3  2CD             Rx   d 6 01 00 FF FF 00 00
   0.634259 3  1BE             Rx   d 6 FD FF DE FF 4C 01
   0.635253 3  1BA             Rx   d 4 00 00 00 00
   0.635254 3  3BA             Rx   d 2 00 00
   0.637269 3  28A             Rx   d 8 00 00 00 00 00 00 00 00
   0.644038 3  1BE             Rx   d 6 FD FF DE FF 4C 01
   0.645081 3  1CD             Rx   d 6 01 00 1C 00 E9 03
   0.645081 3  2CD             Rx   d 6 01 00 00 00 00 00
   0.645082 3  1BA             Rx   d 4 00 00 00 00
   0.645083 3  3BA             Rx   d 2 00 00
   0.646950 3  28A             Rx   d 8 00 00 00 00 00 00 00 00
   0.653077 3  1CD             Rx   d 6 02 00 1B 00 EB 03
   0.654132 3  2CD             Rx   d 6 01 00 FF FF 00 00
   0.654946 3  1BE             Rx   d 6 FE FF E7 FF 4C 01
   0.654947 3  1BA             Rx   d 4 FF FF FF FF
   0.654947 3  3BA             Rx   d 2 00 00
   0.659593 3  28A             Rx   d 8 00 00 00 00 00 00 00 00
   0.663135 3  1CD             Rx   d 6 02 00 1B 00 ED 03
   0.664122 3  2CD             Rx   d 6 00 00 02 00 02 00
   0.665141 3  1BE             Rx   d 6 FE FF E7 FF 4C 01
   0.665142 3  1BA             Rx   d 4 FF FF FF FF
   0.666125 3  3BA             Rx   d 2 00 00
   0.669123 3  28A             Rx   d 8 00 00 00 00 0E 00 00 00
   0.673168 3  1CD             Rx   d 6 01 00 1B 00 EC 03
   0.674306 3  1BE             Rx   d 6 FE FF E7 FF 4C 01
   0.675189 3  2CD             Rx   d 6 00 00 01 00 00 00
   0.675189 3  1BA             Rx   d 4 00 00 00 00
   0.675190 3  3BA             Rx   d 2 FF FF
   0.679290 3  28A             Rx   d 8 00 00 00 00 0E 00 00 00
   0.683198 3  1CD             Rx   d 6 02 00 1C 00 EB 03
   0.684199 3  2CD             Rx   d 6 00 00 FF FF 00 00
   0.685212 3  1BE             Rx   d 6 01 00 EF FF 4C 01
   0.685212 3  1BA             Rx   d 4 00 00 00 00
   0.685213 3  3BA             Rx   d 2 FF FF
   0.689187 3  28A             Rx   d 8 F2 FF FF FF 0E 00 00 00
   0.693044 3  1CD             Rx   d 6 01 00 1D 00 EE 03
   0.694063 3  2CD             Rx   d 6 FF FF 01 00 00 00
   0.695043 3  1BE             Rx   d 6 01 00 EF FF 4C 01
   0.695044 3  1BA             Rx   d 4 00 00 00 00
   0.695045 3  3BA             Rx   d 2 FF FF
   0.699151 3  28A             Rx   d 8 F2 FF FF FF 0E 00 00 00
   0.703074 3  1CD             Rx   d 6 01 00 1D 00 ED 03
   0.704059 3  2CD             Rx   d 6 02 00 02 00 00 00
   0.705071 3  1BE             Rx   d 6 03 00 F0 FF 4C 01
   0.705072 3  1BA             Rx   d 4 00 00 00 00
   0.705072 3  3BA             Rx   d 2 FF FF
   0.709070 3  28A             Rx   d 8 F2 FF FF FF 0E 00 00 00
   0.712895 3  1CD             Rx   d 6 01 00 1D 00 EA 03
   0.713883 3  2CD             Rx   d 6 00 00 01 00 00 00
   0.714876 3  1BE             Rx   d 6 03 00 F0 FF 4C 01
   0.714876 3  1BA             Rx   d 4 00 00 00 00
   0.715977 3  3BA             Rx   d 2 FF FF
   0.719134 3  28A             Rx   d 8 F2 FF FF FF 0E 00 00 00
   0.723099 3  1CD             Rx   d 6 01 00 1C 00 EC 03
   0.724071 3  2CD             Rx   d 6 00 00 FE FF FE FF
   0.725089 3  1BE             Rx   d 6 02 00 EA FF 4C 01
   0.725089 3  1BA             Rx   d 4 00 00 00 00
   0.725090 3  3BA             Rx   d 2 FF FF
   0.730040 3  28A             Rx   d 8 F2 FF FF FF 0E 00 00 00
   0.732792 3  1CD             Rx   d 6 01 00 1C 00 EB 03
   0.733761 3  2CD             Rx   d 6 00 00 FF FF 00 00
   0.734816 3  1BE             Rx   d 6 02 00 EA FF 4C 01
   0.734817 3  1BA             Rx   d 4 00 00 00 00
   0.734817 3  3BA             Rx   d 2 FF FF
   0.740276 3  28A             Rx   d 8 F2 FF FF FF 0E 00 00 00
   0.743233 3  1CD             Rx   d 6 02 00 1C 00 ED 03
   0.744244 3  2CD             Rx   d 6 01 00 00 00 00 00
   0.745290 3  1BE             Rx   d 6 FE FF E2 FF 4C 01
   0.745290 3  1BA             Rx   d 4 00 00 00 00
   0.745291 3  3BA             Rx   d 2 FF FF
   0.751435 3  28A             Rx   d 8 F2 FF FF FF 0E 00 00 00
   0.753119 3  1CD             Rx   d 6 01 00 1D 00 EF 03
   0.754096 3  2CD             Rx   d 6 00 00 00 00 01 00
   0.755053 3  1BE             Rx   d 6 FE FF E2 FF 4C 01
   0.755053 3  1BA             Rx   d 4 00 00 00 00
   0.755054 3  3BA             Rx   d 2 FF FF
   0.761120 3  28A             Rx   d 8 F2 FF FF FF 0E 00 00 00
   0.762870 3  1CD             Rx   d 6 01 00 1A 00 EB 03
   0.763829 3  2CD             Rx   d 6 FF FF 01 00 01 00
   0.764889 3  1BE             Rx   d 6 FE FF E2 FF 4C 01
   0.764890 3  1BA             Rx   d 4 00 00 00 00
   0.765860 3  3BA             Rx   d 2 FF FF
   0.773107 3  1CD             Rx   d 6 01 00 1C 00 E9 03
   0.774049 3  2CD             Rx   d 6 FE FF 00 00 01 00
   0.775139 3  1BE             Rx   d 6 FC FF DE FF 4C 01
   0.775140 3  28A             Rx   d 8 F2 FF FF FF 0E 00 00 00
   0.775141 3  1BA             Rx   d 4 FF FF FF FF
   0.776067 3  3BA             Rx   d 2 00 00
   0.782932 3  1CD             Rx   d 6 03 00 1A 00 ED 03
   0.783868 3  2CD             Rx   d 6 00 00 FF FF 01 00
   0.783868 3  28A             Rx   d 8 F2 FF FF FF 0E 00 00 00
   0.784886 3  1BE             Rx   d 6 FC FF DE FF 4C 01
   0.785875 3  1BA             Rx   d 4 00 00 00 00
   0.785876 3  3BA             Rx   d 2 00 00
   0.793059 3  1CD             Rx   d 6 03 00 1A 00 EC 03
   0.794227 3  2CD             Rx   d 6 FE FF 01 00 01 00
   0.795077 3  1BE             Rx   d 6 FC FF DF FF 4C 01
   0.795078 3  1BA             Rx   d 4 FF FF FF FF
   0.795078 3  3BA             Rx   d 2 00 00
   0.796699 3  28A             Rx   d 8 F2 FF FF FF 0E 00 00 00
   0.802895 3  1CD             Rx   d 6 02 00 1A 00 E8 03
   0.803892 3  2CD             Rx   d 6 00 00 01 00 00 00
   0.804905 3  1BE             Rx   d 6 FC FF DF FF 4C 01
   0.804906 3  1BA             Rx   d 4 00 00 00 00
   0.804906 3  3BA             Rx   d 2 00 00
   0.805896 3  28A             Rx   d 8 F2 FF FF FF 0E 00 00 00
   0.813018 3  1CD             Rx   d 6 02 00 1B 00 EC 03
   0.814112 3  2CD             Rx   d 6 00 00 FF FF 00 00
   0.815105 3  1BE             Rx   d 6 FF FF E4 FF 4C 01
   0.815106 3  1BA             Rx   d 4 FF FF FF FF
   0.815106 3  3BA             Rx   d 2 00 00
   0.818140 3  28A             Rx   d 8 F2 FF FF FF 0E 00 00 00
   0.822927 3  1CD             Rx   d 6 03 00 1B 00 EC 03
   0.823929 3  2CD             Rx   d 6 01 00 00 00 00 00
   0.824932 3  1BE             Rx   d 6 FF FF E4 FF 4C 01
   0.824933 3  1BA             Rx   d 4 00 00 00 00
   0.825943 3  3BA             Rx   d 2 00 00
   0.827858 3  28A             Rx   d 8 F2 FF FF FF 0E 00 00 00
   0.833968 3  1CD             Rx   d 6 02 00 1D 00 EC 03
   0.834963 3  2CD             Rx   d 6 02 00 FF FF 00 00
   0.834964 3  1BE             Rx   d 6 01 00 E9 FF 4C 01
   0.834964 3  1BA             Rx   d 4 00 00 00 00
   0.834964 3  3BA             Rx   d 2 00 00
   0.837843 3  28A             Rx   d 8 F2 FF FF FF 0E 00 00 00
   0.842941 3  1CD             Rx   d 6 02 00 1C 00 E9 03
   0.844026 3  2CD             Rx   d 6 00 00 00 00 00 00
   0.845031 3  1BE             Rx   d 6 01 00 E9 FF 4C 01
   0.845033 3  1BA             Rx   d 4 00 00 00 00
   0.846051 3  3BA             Rx   d 2 00 00
   0.847844 3  28A             Rx   d 8 F2 FF FF FF 0E 00 00 00
   0.852824 3  1CD             Rx   d 6 02 00 1C 00 EB 03
   0.853856 3  2CD             Rx   d 6 02 00 01 00 00 00
   0.854854 3  1BE             Rx   d 6 01 00 E9 FF 4C 01
   0.855892 3  1BA             Rx   d 4 00 00 00 00
   0.855893 3  3BA             Rx   d 2 00 00
   0.857862 3  28A             Rx   d 8 F2 FF FF FF 0E 00 00 00
   0.862840 3  1CD             Rx   d 6 02 00 1C 00 EC 03
   0.864012 3  2CD             Rx   d 6 00 00 00 00 01 00
   0.865036 3  1BE             Rx   d 6 01 00 EB FF 4C 01
   0.865037 3  1BA             Rx   d 4 00 00 00 00
   0.866049 3  3BA             Rx   d 2 00 00
   0.867849 3  28A             Rx   d 8 F2 FF FF FF 0E 00 00 00
   0.872839 3  1CD             Rx   d 6 01 00 1C 00 ED 03
   0.873810 3  2CD             Rx   d 6 01 00 01 00 00 00
   0.874867 3  1BE             Rx   d 6 01 00 EB FF 4C 01
   0.875845 3  1BA             Rx   d 4 00 00 00 00
   0.875846 3  3BA             Rx   d 2 00 00
   0.877841 3  28A             Rx   d 8 F2 FF FF FF 0E 00 00 00
   0.883900 3  1CD             Rx   d 6 02 00 1D 00 EC 03
   0.884896 3  2CD             Rx   d 6 FF FF 02 00 00 00
   0.884897 3  1BE             Rx   d 6 FF FF EA FF 4C 01
   0.885891 3  1BA             Rx   d 4 00 00 00 00
   0.885891 3  3BA             Rx   d 2 00 00
   0.888011 3  28A             Rx   d 8 F2 FF FF FF 0E 00 00 00
   0.892942 3  1CD             Rx   d 6 02 00 1D 00 EC 03
   0.893979 3  2CD             Rx   d 6 00 00 01 00 FF FF
   0.894983 3  1BE             Rx   d 6 FF FF EA FF 4C 01
   0.895964 3  1BA             Rx   d 4 00 00 00 00
   0.895964 3  3BA             Rx   d 2 00 00
   0.897856 3  28A             Rx   d 8 F2 FF FF FF 0E 00 00 00
   0.902700 3  1CD             Rx   d 6 00 00 1C 00 EC 03
   0.903722 3  2CD             Rx   d 6 00 00 FE FF 00 00
   0.904845 3  1BE             Rx   d 6 FE FF E8 FF 4C 01
   0.905849 3  1BA             Rx   d 4 00 00 00 00
   0.905849 3  3BA             Rx   d 2 00 00
   0.912062 3  28A             Rx   d 8 F2 FF FF FF 0E 00 00 00
   0.913184 3  1CD             Rx   d 6 00 00 1B 00 ED 03
   0.914057 3  2CD             Rx   d 6 01 00 01 00 00 00
   0.915045 3  1BA             Rx   d 4 00 00 00 00
   0.915046 3  1BE             Rx   d 6 FE FF E8 FF 4C 01
   0.915046 3  3BA             Rx   d 2 00 00
   0.922048 3  28A             Rx   d 8 F2 FF FF FF 0E 00 00 00
   0.923158 3  1CD             Rx   d 6 00 00 1B 00 EB 03
   0.923159 3  2CD             Rx   d 6 01 00 01 00 00 00
   0.924919 3  1BE             Rx   d 6 FE FF E3 FF 4C 01
   0.925891 3  1BA             Rx   d 4 00 00 00 00
   0.925892 3  3BA             Rx   d 2 00 00
   0.932859 3  1CD             Rx   d 6 01 00 1A 00 EB 03
   0.933852 3  28A             Rx   d 8 F2 FF FF FF 0E 00 00 00
   0.934861 3  2CD             Rx   d 6 01 00 01 00 FE FF
   0.934861 3  1BE             Rx   d 6 FE FF E3 FF 4C 01
   0.935845 3  1BA             Rx   d 4 00 00 00 00
   0.935845 3  3BA             Rx   d 2 00 00
   0.942917 3  1CD             Rx   d 6 02 00 1B 00 EC 03
   0.943969 3  28A             Rx   d 8 F2 FF FF FF 0E 00 00 00
   0.944960 3  2CD             Rx   d 6 00 00 02 00 00 00
   0.945882 3  1BE             Rx   d 6 FE FF E3 FF 4C 01
   0.945883 3  1BA             Rx   d 4 00 00 00 00
   0.945883 3  3BA             Rx   d 2 00 00
   0.952834 3  1CD             Rx   d 6 02 00 1B 00 EC 03
   0.953739 3  2CD             Rx   d 6 02 00 02 00 01 00
   0.955036 3  1BE             Rx   d 6 00 00 E0 FF 4C 01
   0.956031 3  1BA             Rx   d 4 00 00 00 00
   0.956031 3  3BA             Rx   d 2 00 00
   0.957037 3  28A             Rx   d 8 F2 FF FF FF 0E 00 00 00
   0.963766 3  1CD             Rx   d 6 03 00 1B 00 EA 03
   0.964883 3  2CD             Rx   d 6 00 00 00 00 01 00
   0.965876 3  1BA             Rx   d 4 00 00 00 00
   0.965877 3  1BE             Rx   d 6 00 00 E0 FF 4C 01
   0.965877 3  3BA             Rx   d 2 00 00
   0.966849 3  28A             Rx   d 8 F2 FF FF FF 0E 00 00 00
   0.972867 3  1CD             Rx   d 6 02 00 1B 00 ED 03
   0.973931 3  2CD             Rx   d 6 00 00 00 00 FF FF
   0.974912 3  1BA             Rx   d 4 00 00 00 00
   0.975955 3  1BE             Rx   d 6 02 00 E1 FF 4C 01
   0.975955 3  3BA             Rx   d 2 FF FF
   0.980880 3  28A             Rx   d 8 F2 FF FF FF 0E 00 00 00
   0.982739 3  1CD             Rx   d 6 02 00 1C 00 EA 03
   0.983727 3  2CD             Rx   d 6 00 00 01 00 00 00
   0.985276 3  1BE             Rx   d 6 02 00 E1 FF 4C 01
   0.986232 3  1BA             Rx   d 4 FF FF FF FF
   0.986233 3  3BA             Rx   d 2 FF FF
   0.990074 3  28A             Rx   d 8 F2 FF FF FF 0E 00 00 00
   0.992904 3  1CD             Rx   d 6 04 00 1A 00 EB 03
   0.994062 3  2CD             Rx   d 6 00 00 01 00 00 00
   0.994991 3  1BA             Rx   d 4 00 00 00 00
   0.995972 3  1BE             Rx   d 6 03 00 E7 FF 4C 01
   0.995973 3  3BA             Rx   d 2 FF FF
   1.002274 3  28A             Rx   d 8 F2 FF FF FF 0E 00 00 00
   1.003385 3  1CD             Rx   d 6 02 00 1A 00 EB 03
   1.003386 3  2CD             Rx   d 6 01 00 00 00 00 00
   1.004976 3  1BA             Rx   d 4 00 00 00 00
   1.005972 3  1BE             Rx   d 6 03 00 E7 FF 4C 01
   1.005973 3  3BA             Rx   d 2 FF FF
   1.011981 3  28A             Rx   d 8 F2 FF FF FF 0E 00 00 00
   1.013018 3  1CD             Rx   d 6 03 00 1B 00 EC 03
   1.013974 3  2CD             Rx   d 6 00 00 00 00 00 00
   1.014998 3  1BA             Rx   d 4 FF FF FF FF
   1.014998 3  3BA             Rx   d 2 FF FF
   1.015969 3  1BE             Rx   d 6 01 00 EC FF 4C 01
   1.022062 3  28A             Rx   d 8 F2 FF FF FF 0E 00 00 00
   1.023039 3  1CD             Rx   d 6 01 00 1C 00 EB 03
   1.023040 3  2CD             Rx   d 6 00 00 03 00 00 00
   1.025010 3  1BA             Rx   d 4 00 00 00 00
   1.026116 3  1BE             Rx   d 6 01 00 EC FF 4C 01
   1.026116 3  3BA             Rx   d 2 FF FF
   1.031989 3  28A             Rx   d 8 F2 FF FF FF 0E 00 00 00
   1.032945 3  1CD             Rx   d 6 01 00 1C 00 EC 03
   1.032945 3  2CD             Rx   d 6 00 00 00 00 00 00
   1.034915 3  1BA             Rx   d 4 00 00 00 00
   1.036027 3  3BA             Rx   d 2 FF FF
   1.036028 3  1BE             Rx   d 6 01 00 EC FF 4C 01
   1.042075 3  28A             Rx   d 8 F2 FF FF FF 0E 00 00 00
   1.042976 3  1CD             Rx   d 6 01 00 1B 00 EC 03
   1.044041 3  2CD             Rx   d 6 00 00 03 00 01 00
   1.045065 3  1BA             Rx   d 4 00 00 00 00
   1.045065 3  3BA             Rx   d 2 FF FF
   1.046000 3  1BE             Rx   d 6 FD FF EB FF 4C 01
   1.051931 3  28A             Rx   d 8 F2 FF FF FF 00 00 00 00
   1.052959 3  1CD             Rx   d 6 00 00 1C 00 EB 03
   1.052960 3  2CD             Rx   d 6 00 00 03 00 00 00
   1.054864 3  1BA             Rx   d 4 00 00 00 00
   1.055068 3  3BA             Rx   d 2 FF FF
   1.056181 3  1BE             Rx   d 6 FD FF EB FF 4C 01
   1.061918 3  28A             Rx   d 8 F2 FF FF FF 00 00 00 00
   1.062969 3  1CD             Rx   d 6 01 00 1B 00 EE 03
   1.063960 3  2CD             Rx   d 6 00 00 00 00 00 00
   1.064990 3  1BA             Rx   d 4 00 00 00 00
   1.064990 3  3BA             Rx   d 2 FF FF
   1.065987 3  1BE             Rx   d 6 FE FF E8 FF 4C 01
   1.071901 3  28A             Rx   d 8 F2 FF FF FF 00 00 00 00
   1.073023 3  1CD             Rx   d 6 01 00 1B 00 EC 03
   1.073024 3  2CD             Rx   d 6 02 00 02 00 02 00
   1.074878 3  1BA             Rx   d 4 00 00 00 00
   1.075777 3  3BA             Rx   d 2 00 00
   1.075778 3  1BE             Rx   d 6 FE FF E8 FF 4C 01
   1.082151 3  28A             Rx   d 8 F2 FF FF FF 00 00 00 00
   1.083764 3  1CD             Rx   d 6 00 00 1C 00 EC 03
   1.084724 3  2CD             Rx   d 6 00 00 00 00 00 00
   1.085749 3  1BA             Rx   d 4 00 00 00 00
   1.085750 3  3BA             Rx   d 2 00 00
   1.085750 3  1BE             Rx   d 6 00 00 E5 FF 4C 01
   1.092748 3  1CD             Rx   d 6 02 00 1B 00 EA 03
   1.093746 3  28A             Rx   d 8 F2 FF FF FF 00 00 00 00
   1.094771 3  2CD             Rx   d 6 01 00 00 00 00 00
   1.095789 3  1BA             Rx   d 4 00 00 00 00
   1.095790 3  3BA             Rx   d 2 00 00
   1.095790 3  1BE             Rx   d 6 00 00 E5 FF 4C 01
   1.102676 3  1CD             Rx   d 6 01 00 1C 00 EC 03
   1.103633 3  2CD             Rx   d 6 00 00 00 00 FF FF
   1.103633 3  28A             Rx   d 8 F2 FF FF FF 00 00 00 00
   1.104922 3  1BA             Rx   d 4 FF FF FF FF
   1.105954 3  3BA             Rx   d 2 00 00
   1.105954 3  1BE             Rx   d 6 01 00 E3 FF 4C 01
   1.113814 3  1CD             Rx   d 6 01 00 1B 00 E9 03
   1.114674 3  2CD             Rx   d 6 01 00 FF FF 00 00
   1.115738 3  1BA             Rx   d 4 FF FF FF FF
   1.115739 3  3BA             Rx   d 2 00 00
   1.115739 3  28A             Rx   d 8 F2 FF FF FF 00 00 00 00
   1.115740 3  1BE             Rx   d 6 01 00 E3 FF 4C 01
   1.122811 3  1CD             Rx   d 6 02 00 1B 00 EC 03
   1.123818 3  2CD             Rx   d 6 FF FF 00 00 00 00
   1.125117 3  1BA             Rx   d 4 00 00 00 00
   1.126113 3  28A             Rx   d 8 F2 FF FF FF 00 00 00 00
   1.126114 3  3BA             Rx   d 2 00 00
   1.126114 3  1BE             Rx   d 6 01 00 E3 FF 4C 01
   1.132528 3  1CD             Rx   d 6 03 00 1A 00 ED 03
   1.133479 3  2CD             Rx   d 6 01 00 00 00 00 00
   1.134890 3  1BA             Rx   d 4 00 00 00 00
   1.135832 3  3BA             Rx   d 2 00 00
   1.135833 3  1BE             Rx   d 6 FF FF E1 FF 4C 01
   1.138664 3  28A             Rx   d 8 F2 FF FF FF 00 00 00 00
   1.142816 3  1CD             Rx   d 6 04 00 1D 00 EA 03
   1.143896 3  2CD             Rx   d 6 00 00 01 00 00 00
   1.145018 3  1BA             Rx   d 4 00 00 00 00
   1.146094 3  3BA             Rx   d 2 00 00
   1.146095 3  1BE             Rx   d 6 FF FF E1 FF 4C 01
   1.148495 3  28A             Rx   d 8 F2 FF FF FF 00 00 00 00
   1.152620 3  1CD             Rx   d 6 03 00 1C 00 EA 03
   1.153623 3  2CD             Rx   d 6 00 00 FF FF 00 00
   1.154842 3  1BA             Rx   d 4 FF FF FF FF
   1.155747 3  3BA             Rx   d 2 00 00
   1.155748 3  1BE             Rx   d 6 FF FF E3 FF 4C 01
   1.161740 3  28A             Rx   d 8 F2 FF FF FF 00 00 00 00
   1.163664 3  1CD             Rx   d 6 03 00 1C 00 E8 03
   1.164681 3  2CD             Rx   d 6 02 00 00 00 01 00
   1.165628 3  1BA             Rx   d 4 00 00 00 00
   1.165629 3  3BA             Rx   d 2 00 00
   1.165629 3  1BE             Rx   d 6 FF FF E3 FF 4C 01
   1.171674 3  28A             Rx   d 8 F2 FF FF FF 00 00 00 00
   1.172762 3  1CD             Rx   d 6 03 00 1A 00 EC 03
   1.173776 3  2CD             Rx   d 6 01 00 FE FF 02 00
   1.175069 3  1BA             Rx   d 4 00 00 00 00
   1.176067 3  3BA             Rx   d 2 00 00
   1.176068 3  1BE             Rx   d 6 00 00 E8 FF 4C 01
   1.182530 3  1CD             Rx   d 6 02 00 1A 00 ED 03
   1.183559 3  2CD             Rx   d 6 FF FF 00 00 00 00
   1.184539 3  28A             Rx   d 8 F2 FF FF FF 00 00 00 00
   1.185507 3  1BA             Rx   d 4 00 00 00 00
   1.185508 3  3BA             Rx   d 2 00 00
   1.186539 3  1BE             Rx   d 6 00 00 E8 FF 4C 01
   1.193043 3  28A             Rx   d 8 F2 FF FF FF 00 00 00 00
   1.194047 3  1CD             Rx   d 6 02 00 1C 00 EE 03
   1.194048 3  2CD             Rx   d 6 01 00 01 00 FF FF
   1.195031 3  1BA             Rx   d 4 00 00 00 00
   1.196030 3  3BA             Rx   d 2 00 00
   1.196031 3  1BE             Rx   d 6 FF FF EA FF 4C 01
   1.202793 3  1CD             Rx   d 6 02 00 1C 00 EC 03
   1.203681 3  2CD             Rx   d 6 00 00 01 00 FF FF
   1.205007 3  1BA             Rx   d 4 FF FF FF FF
   1.206038 3  3BA             Rx   d 2 00 00
   1.206038 3  28A             Rx   d 8 F2 FF FF FF 00 00 00 00
   1.206039 3  1BE             Rx   d 6 FF FF EA FF 4C 01
   1.212507 3  1CD             Rx   d 6 02 00 1C 00 EA 03
   1.213507 3  2CD             Rx   d 6 01 00 01 00 02 00
   1.214714 3  1BA             Rx   d 4 FF FF FF FF
   1.215825 3  28A             Rx   d 8 F2 FF FF FF 00 00 00 00
   1.215825 3  3BA             Rx   d 2 00 00
   1.215826 3  1BE             Rx   d 6 FF FF EA FF 4C 01
   1.222502 3  1CD             Rx   d 6 01 00 1C 00 ED 03
   1.223661 3  2CD             Rx   d 6 00 00 00 00 01 00
   1.225069 3  1BA             Rx   d 4 00 00 00 00
   1.226095 3  3BA             Rx   d 2 00 00
   1.226096 3  1BE             Rx   d 6 FD FF E8 FF 4C 01
   1.227633 3  28A             Rx   d 8 F2 FF FF FF 00 00 00 00
   1.232536 3  1CD             Rx   d 6 00 00 1C 00 F1 03
   1.233426 3  2CD             Rx   d 6 00 00 00 00 FE FF
   1.235052 3  1BA             Rx   d 4 00 00 00 00
   1.236064 3  3BA             Rx   d 2 00 00
   1.236065 3  1BE             Rx   d 6 FD FF E8 FF 4C 01
   1.237200 3  28A             Rx   d 8 F2 FF FF FF 00 00 00 00
   1.243580 3  1CD             Rx   d 6 01 00 1C 00 EC 03
   1.244577 3  2CD             Rx   d 6 00 00 00 00 00 00
   1.245607 3  1BA             Rx   d 4 00 00 00 00
   1.245607 3  3BA             Rx   d 2 00 00
   1.246578 3  1BE             Rx   d 6 FF FF E5 FF 4C 01
   1.251723 3  28A             Rx   d 8 F2 FF FF FF 00 00 00 00
   1.252727 3  1CD             Rx   d 6 01 00 1B 00 E9 03
   1.253729 3  2CD             Rx   d 6 00 00 01 00 FF FF
   1.255100 3  1BA             Rx   d 4 00 00 00 00
   1.256115 3  3BA             Rx   d 2 00 00
   1.256116 3  1BE             Rx   d 6 FF FF E5 FF 4C 01
   1.261673 3  28A             Rx   d 8 F2 FF FF FF 00 00 00 00
   1.262673 3  1CD             Rx   d 6 02 00 1D 00 ED 03
   1.263719 3  2CD             Rx   d 6 00 00 01 00 01 00
   1.264952 3  1BA             Rx   d 4 00 00 00 00
   1.265959 3  3BA             Rx   d 2 00 00
   1.265960 3  1BE             Rx   d 6 02 00 E3 FF 4C 01
   1.272565 3  1CD             Rx   d 6 01 00 1D 00 EB 03
   1.273531 3  2CD             Rx   d 6 00 00 00 00 00 00
   1.274553 3  28A             Rx   d 8 F2 FF FF FF 00 00 00 00
   1.275498 3  1BA             Rx   d 4 00 00 00 00
   1.275499 3  3BA             Rx   d 2 00 00
   1.276503 3  1BE             Rx   d 6 02 00 E3 FF 4C 01
   1.282411 3  1CD             Rx   d 6 00 00 1B 00 EB 03
   1.283395 3  2CD             Rx   d 6 01 00 00 00 01 00
   1.284499 3  28A             Rx   d 8 F2 FF FF FF 00 00 00 00
   1.285503 3  1BA             Rx   d 4 00 00 00 00
   1.285504 3  3BA             Rx   d 2 00 00
   1.286504 3  1BE             Rx   d 6 02 00 E2 FF 4C 01
   1.292351 3  1CD             Rx   d 6 03 00 1A 00 EE 03
   1.293362 3  2CD             Rx   d 6 00 00 01 00 00 00
   1.295120 3  1BA             Rx   d 4 FF FF FF FF
   1.296151 3  3BA             Rx   d 2 00 00
   1.296152 3  28A             Rx   d 8 F2 FF FF FF 00 00 00 00
   1.297083 3  1BE             Rx   d 6 02 00 E2 FF 4C 01
   1.302392 3  1CD             Rx   d 6 03 00 1B 00 E9 03
   1.303390 3  2CD             Rx   d 6 01 00 02 00 00 00
   1.305199 3  28A             Rx   d 8 F2 FF FF FF 00 00 00 00
   1.306211 3  1BA             Rx   d 4 00 00 00 00
   1.306212 3  3BA             Rx   d 2 00 00
   1.306212 3  1BE             Rx   d 6 02 00 E2 FF 4C 01
   1.312300 3  1CD             Rx   d 6 02 00 1B 00 EC 03
   1.313397 3  2CD             Rx   d 6 01 00 03 00 00 00
   1.315099 3  1BA             Rx   d 4 00 00 00 00
   1.316074 3  3BA             Rx   d 2 00 00
   1.317060 3  1BE             Rx   d 6 00 00 E3 FF 4C 01
   1.317981 3  28A             Rx   d 8 F2 FF FF FF 00 00 00 00
   1.322500 3  1CD             Rx   d 6 02 00 1A 00 EC 03
   1.323375 3  2CD             Rx   d 6 00 00 00 00 00 00
   1.325258 3  1BA             Rx   d 4 00 00 00 00
   1.326256 3  3BA             Rx   d 2 00 00
   1.326256 3  1BE             Rx   d 6 00 00 E3 FF 4C 01
   1.327232 3  28A             Rx   d 8 F2 FF FF FF 00 00 00 00
   1.332329 3  1CD             Rx   d 6 04 00 1A 00 EC 03
   1.333284 3  2CD             Rx   d 6 FF FF FE FF FF FF
   1.335104 3  1BA             Rx   d 4 00 00 00 00
   1.336052 3  3BA             Rx   d 2 00 00
   1.336053 3  1BE             Rx   d 6 FD FF E6 FF 4C 01
   1.340356 3  28A             Rx   d 8 F2 FF FF FF 00 00 00 00
   1.342526 3  1CD             Rx   d 6 02 00 1B 00 ED 03
   1.343579 3  2CD             Rx   d 6 00 00 01 00 00 00
   1.345099 3  1BA             Rx   d 4 00 00 00 00
   1.346137 3  3BA             Rx   d 2 00 00
   1.347101 3  1BE             Rx   d 6 FD FF E6 FF 4C 01
   1.349440 3  28A             Rx   d 8 00 00 00 00 00 00 00 00
   1.352396 3  1CD             Rx   d 6 01 00 1A 00 EB 03
   1.353402 3  2CD             Rx   d 6 01 00 00 00 FF FF
   1.355286 3  1BA             Rx   d 4 00 00 00 00
   1.356243 3  3BA             Rx   d 2 00 00
   1.357261 3  1BE             Rx   d 6 FD FF E9 FF 4C 01
   1.361883 3  28A             Rx   d 8 00 00 00 00 00 00 00 00
   1.363070 3  1CD             Rx   d 6 03 00 1B 00 EA 03
   1.363071 3  2CD             Rx   d 6 00 00 01 00 00 00
   1.365236 3  1BA             Rx   d 4 00 00 00 00
   1.366206 3  3BA             Rx   d 2 00 00
   1.367228 3  1BE             Rx   d 6 FD FF E9 FF 4C 01
   1.371560 3  28A             Rx   d 8 00 00 00 00 00 00 00 00
   1.372561 3  1CD             Rx   d 6 01 00 1A 00 EE 03
   1.373557 3  2CD             Rx   d 6 00 00 03 00 02 00
   1.375125 3  1BA             Rx   d 4 00 00 00 00
   1.376122 3  3BA             Rx   d 2 00 00
   1.377083 3  1BE             Rx   d 6 FE FF E9 FF 4C 01
   1.382324 3  1CD             Rx   d 6 01 00 1C 00 EC 03
   1.383387 3  2CD             Rx   d 6 FE FF 00 00 00 00
   1.385151 3  28A             Rx   d 8 00 00 00 00 00 00 00 00
   1.386160 3  1BA             Rx   d 4 00 00 00 00
   1.386160 3  3BA             Rx   d 2 00 00
   1.387127 3  1BE             Rx   d 6 FE FF E9 FF 4C 01
   1.392416 3  1CD             Rx   d 6 01 00 1C 00 EC 03
   1.393391 3  2CD             Rx   d 6 FF FF 00 00 00 00
   1.395225 3  1BA             Rx   d 4 00 00 00 00
   1.396203 3  3BA             Rx   d 2 00 00
   1.396204 3  28A             Rx   d 8 00 00 00 00 00 00 00 00
   1.397213 3  1BE             Rx   d 6 FE FF E9 FF 4C 01
   1.402430 3  1CD             Rx   d 6 01 00 1B 00 EB 03
   1.403507 3  2CD             Rx   d 6 01 00 00 00 01 00
   1.404995 3  1BA             Rx   d 4 00 00 00 00
   1.406040 3  3BA             Rx   d 2 00 00
   1.407029 3  1BE             Rx   d 6 00 00 E6 FF 4C 01
   1.408360 3  28A             Rx   d 8 00 00 00 00 00 00 00 00
   1.412289 3  1CD             Rx   d 6 01 00 1A 00 EC 03
   1.413302 3  2CD             Rx   d 6 FE FF 02 00 00 00
   1.415212 3  1BA             Rx   d 4 00 00 00 00
   1.416231 3  3BA             Rx   d 2 00 00
   1.417241 3  1BE             Rx   d 6 00 00 E6 FF 4C 01
   1.418208 3  28A             Rx   d 8 00 00 00 00 00 00 00 00
   1.422393 3  1CD             Rx   d 6 01 00 1C 00 EC 03
   1.423448 3  2CD             Rx   d 6 FF FF FF FF 01 00
   1.425150 3  1BA             Rx   d 4 00 00 00 00
   1.426180 3  3BA             Rx   d 2 00 00
   1.427191 3  1BE             Rx   d 6 01 00 E4 FF 4C 01
   1.430634 3  28A             Rx   d 8 00 00 00 00 00 00 00 00
   1.432297 3  1CD             Rx   d 6 00 00 1C 00 EC 03
   1.433296 3  2CD             Rx   d 6 00 00 00 00 00 00
   1.434945 3  1BA             Rx   d 4 FF FF FF FF
   1.435947 3  3BA             Rx   d 2 00 00
   1.436966 3  1BE             Rx   d 6 01 00 E4 FF 4C 01
   1.440270 3  28A             Rx   d 8 00 00 00 00 00 00 00 00
   1.442426 3  1CD             Rx   d 6 02 00 1B 00 EC 03
   1.443497 3  2CD             Rx   d 6 00 00 00 00 00 00
   1.445218 3  1BA             Rx   d 4 00 00 00 00
   1.446221 3  3BA             Rx   d 2 00 00
   1.447222 3  1BE             Rx   d 6 FF FF E5 FF 4C 01
   1.452344 3  1CD             Rx   d 6 01 00 1D 00 EC 03
   1.453343 3  2CD             Rx   d 6 00 00 02 00 00 00
   1.454353 3  28A             Rx   d 8 00 00 00 00 00 00 00 00
   1.455346 3  1BA             Rx   d 4 00 00 00 00
   1.455347 3  3BA             Rx   d 2 00 00
   1.456550 3  1BE             Rx   d 6 FF FF E5 FF 4C 01
   1.462435 3  1CD             Rx   d 6 01 00 1B 00 EC 03
   1.463473 3  2CD             Rx   d 6 00 00 01 00 01 00
   1.464512 3  28A             Rx   d 8 00 00 00 00 00 00 00 00
   1.465501 3  1BA             Rx   d 4 00 00 00 00
   1.465501 3  3BA             Rx   d 2 00 00
   1.466597 3  1BE             Rx   d 6 FD FF E6 FF 4C 01
   1.472393 3  1CD             Rx   d 6 03 00 1B 00 EC 03
   1.473420 3  2CD             Rx   d 6 FF FF 01 00 00 00
   1.475288 3  1BA             Rx   d 4 FF FF FF FF
   1.476266 3  3BA             Rx   d 2 00 00
   1.477296 3  1BE             Rx   d 6 FD FF E6 FF 4C 01
   1.477297 3  28A             Rx   d 8 00 00 00 00 00 00 00 00
   1.482332 3  1CD             Rx   d 6 03 00 1C 00 EC 03
   1.483384 3  2CD             Rx   d 6 01 00 00 00 00 00
   1.485002 3  1BA             Rx   d 4 00 00 00 00
   1.486118 3  3BA             Rx   d 2 00 00
   1.487103 3  1BE             Rx   d 6 FD FF E6 FF 4C 01
   1.487104 3  28A             Rx   d 8 00 00 00 00 F2 FF FF FF
   1.492316 3  1CD             Rx   d 6 03 00 1C 00 E9 03
   1.493322 3  2CD             Rx   d 6 00 00 00 00 01 00
   1.494950 3  1BA             Rx   d 4 00 00 00 00
   1.495942 3  3BA             Rx   d 2 00 00
   1.496920 3  1BE             Rx   d 6 FC FF E7 FF 4C 01
   1.499053 3  28A             Rx   d 8 00 00 00 00 F2 FF FF FF
   1.502199 3  1CD             Rx   d 6 04 00 1B 00 EC 03
   1.503165 3  2CD             Rx   d 6 00 00 02 00 FD FF
   1.505081 3  1BA             Rx   d 4 00 00 00 00
   1.506097 3  3BA             Rx   d 2 00 00
   1.507112 3  1BE             Rx   d 6 FC FF E7 FF 4C 01
   1.508110 3  28A             Rx   d 8 00 00 00 00 F2 FF FF FF
   1.512115 3  1CD             Rx   d 6 03 00 1A 00 EB 03
   1.513282 3  2CD             Rx   d 6 01 00 02 00 00 00
   1.515333 3  1BA             Rx   d 4 FF FF FF FF
   1.516275 3  3BA             Rx   d 2 00 00
   1.517275 3  1BE             Rx   d 6 FE FF E6 FF 4C 01
   1.520462 3  28A             Rx   d 8 00 00 00 00 F2 FF FF FF
   1.522379 3  1CD             Rx   d 6 03 00 1D 00 ED 03
   1.523400 3  2CD             Rx   d 6 01 00 00 00 01 00
   1.525189 3  1BA             Rx   d 4 00 00 00 00
   1.526227 3  3BA             Rx   d 2 00 00
   1.527081 3  1BE             Rx   d 6 FE FF E6 FF 4C 01
   1.530206 3  28A             Rx   d 8 00 00 00 00 F2 FF FF FF
   1.532271 3  1CD             Rx   d 6 02 00 1C 00 EA 03
   1.533285 3  2CD             Rx   d 6 00 00 00 00 00 00
   1.535364 3  1BA             Rx   d 4 00 00 00 00
   1.536269 3  3BA             Rx   d 2 00 00
   1.537310 3  1BE             Rx   d 6 01 00 E6 FF 4C 01
   1.542273 3  1CD             Rx   d 6 01 00 1A 00 EB 03
   1.543338 3  2CD             Rx   d 6 01 00 00 00 00 00
   1.544554 3  28A             Rx   d 8 00 00 00 00 F2 FF FF FF
   1.545539 3  1BA             Rx   d 4 00 00 00 00
   1.545540 3  3BA             Rx   d 2 00 00
   1.547082 3  1BE             Rx   d 6 01 00 E6 FF 4C 01
   1.552241 3  1CD             Rx   d 6 02 00 1B 00 EC 03
   1.553268 3  28A             Rx   d 8 00 00 00 00 F2 FF FF FF
   1.553269 3  2CD             Rx   d 6 00 00 02 00 00 00
   1.555189 3  1BA             Rx   d 4 00 00 00 00
   1.556208 3  3BA             Rx   d 2 00 00
   1.557176 3  1BE             Rx   d 6 02 00 E5 FF 4C 01
   1.563463 3  1CD             Rx   d 6 01 00 1B 00 EC 03
   1.564296 3  2CD             Rx   d 6 00 00 FE FF 00 00
   1.565323 3  28A             Rx   d 8 00 00 00 00 F2 FF FF FF
   1.566301 3  1BA             Rx   d 4 00 00 00 00
   1.566301 3  3BA             Rx   d 2 00 00
   1.567294 3  1BE             Rx   d 6 02 00 E5 FF 4C 01
   1.572263 3  1CD             Rx   d 6 02 00 1A 00 EC 03
   1.573270 3  2CD             Rx   d 6 00 00 FF FF 00 00
   1.574478 3  28A             Rx   d 8 F2 FF FF FF F2 FF FF FF
   1.575587 3  1BA             Rx   d 4 00 00 00 00
   1.575588 3  3BA             Rx   d 2 00 00
   1.576901 3  1BE             Rx   d 6 02 00 E5 FF 4C 01
   1.582160 3  1CD             Rx   d 6 01 00 1B 00 EB 03
   1.583094 3  2CD             Rx   d 6 02 00 00 00 FF FF
   1.585066 3  1BA             Rx   d 4 00 00 00 00
   1.586075 3  3BA             Rx   d 2 00 00
   1.587055 3  1BE             Rx   d 6 01 00 E5 FF 4C 01
   1.588149 3  28A             Rx   d 8 F2 FF FF FF F2 FF FF FF
   1.592321 3  1CD             Rx   d 6 01 00 1B 00 EC 03
   1.593378 3  2CD             Rx   d 6 FE FF 03 00 01 00
   1.595397 3  1BA             Rx   d 4 00 00 00 00
   1.596422 3  3BA             Rx   d 2 00 00
   1.597429 3  1BE             Rx   d 6 01 00 E5 FF 4C 01
   1.598469 3  28A             Rx   d 8 F2 FF FF FF F2 FF FF FF
   1.602157 3  1CD             Rx   d 6 01 00 1C 00 EC 03
   1.603215 3  2CD             Rx   d 6 00 00 03 00 00 00
   1.605281 3  1BA             Rx   d 4 00 00 00 00
   1.606293 3  3BA             Rx   d 2 00 00
   1.607291 3  1BE             Rx   d 6 FD FF E5 FF 4C 01
   1.609267 3  28A             Rx   d 8 F2 FF FF FF F2 FF FF FF
   1.613201 3  1CD             Rx   d 6 02 00 1D 00 EC 03
   1.614223 3  2CD             Rx   d 6 00 00 00 00 00 00
   1.615214 3  1BA             Rx   d 4 00 00 00 00
   1.615215 3  3BA             Rx   d 2 00 00
   1.617009 3  1BE             Rx   d 6 FD FF E5 FF 4C 01
   1.619988 3  28A             Rx   d 8 F2 FF FF FF F2 FF FF FF
   1.622183 3  1CD             Rx   d 6 02 00 1B 00 EB 03
   1.623197 3  2CD             Rx   d 6 01 00 00 00 FE FF
   1.625274 3  1BA             Rx   d 4 00 00 00 00
   1.626347 3  3BA             Rx   d 2 00 00
   1.627320 3  1BE             Rx   d 6 FB FF E5 FF 4C 01
   1.632079 3  1CD             Rx   d 6 01 00 1C 00 EC 03
   1.633068 3  28A             Rx   d 8 F2 FF FF FF F2 FF FF FF
   1.633069 3  2CD             Rx   d 6 00 00 00 00 00 00
   1.635108 3  1BA             Rx   d 4 00 00 00 00
   1.636116 3  3BA             Rx   d 2 00 00
   1.637046 3  1BE             Rx   d 6 FB FF E5 FF 4C 01
   1.642263 3  28A             Rx   d 8 F2 FF FF FF F2 FF FF FF
   1.643257 3  1CD             Rx   d 6 02 00 1B 00 EC 03
   1.644270 3  2CD             Rx   d 6 00 00 01 00 00 00
   1.645365 3  1BA             Rx   d 4 FF FF FF FF
   1.646384 3  3BA             Rx   d 2 00 00
   1.647403 3  1BE             Rx   d 6 FD FF E4 FF 4C 01
   1.652191 3  1CD             Rx   d 6 03 00 1B 00 ED 03
   1.653252 3  2CD             Rx   d 6 00 00 00 00 00 00
   1.654482 3  28A             Rx   d 8 F2 FF FF FF F2 FF FF FF
   1.655486 3  1BA             Rx   d 4 FF FF FF FF
   1.656496 3  3BA             Rx   d 2 00 00
   1.657440 3  1BE             Rx   d 6 FD FF E4 FF 4C 01
   1.662047 3  1CD             Rx   d 6 03 00 1B 00 EA 03
   1.663071 3  2CD             Rx   d 6 00 00 02 00 00 00
   1.664479 3  28A             Rx   d 8 F2 FF FF FF F2 FF FF FF
   1.665488 3  1BA             Rx   d 4 00 00 00 00
   1.665488 3  3BA             Rx   d 2 00 00
   1.667192 3  1BE             Rx   d 6 FD FF E4 FF 4C 01
   1.672113 3  1CD             Rx   d 6 02 00 1C 00 EC 03
   1.673191 3  2CD             Rx   d 6 00 00 05 00 01 00
   1.675220 3  1BA             Rx   d 4 FF FF FF FF
   1.676212 3  3BA             Rx   d 2 00 00
   1.677178 3  28A             Rx   d 8 F2 FF FF FF F2 FF FF FF
   1.678200 3  1BE             Rx   d 6 02 00 E5 FF 4C 01
   1.682123 3  1CD             Rx   d 6 02 00 1B 00 EB 03
   1.683102 3  2CD             Rx   d 6 FE FF 02 00 02 00
   1.685411 3  1BA             Rx   d 4 00 00 00 00
   1.686444 3  28A             Rx   d 8 00 00 00 00 F2 FF FF FF
   1.686445 3  3BA             Rx   d 2 00 00
   1.687448 3  1BE             Rx   d 6 02 00 E5 FF 4C 01
   1.693113 3  1CD             Rx   d 6 02 00 1B 00 EA 03
   1.694054 3  2CD             Rx   d 6 00 00 02 00 00 00
   1.695320 3  1BA             Rx   d 4 00 00 00 00
   1.696315 3  3BA             Rx   d 2 00 00
   1.697233 3  1BE             Rx   d 6 05 00 E4 FF 4C 01
   1.698254 3  28A             Rx   d 8 00 00 00 00 F2 FF FF FF
   1.702128 3  1CD             Rx   d 6 01 00 1C 00 ED 03
   1.703190 3  2CD             Rx   d 6 00 00 00 00 01 00
   1.705133 3  1BA             Rx   d 4 00 00 00 00
   1.706164 3  3BA             Rx   d 2 00 00
   1.707257 3  1BE             Rx   d 6 05 00 E4 FF 4C 01
   1.708306 3  28A             Rx   d 8 00 00 00 00 00 00 00 00
   1.711994 3  1CD             Rx   d 6 03 00 1B 00 EA 03
   1.712926 3  2CD             Rx   d 6 00 00 FE FF 00 00
   1.715312 3  1BA             Rx   d 4 FF FF FF FF
   1.716276 3  3BA             Rx   d 2 00 00
   1.717322 3  1BE             Rx   d 6 01 00 E4 FF 4C 01
   1.720945 3  28A             Rx   d 8 00 00 00 00 00 00 00 00
   1.722147 3  1CD             Rx   d 6 01 00 1C 00 EC 03
   1.723275 3  2CD             Rx   d 6 01 00 00 00 00 00
   1.725233 3  1BA             Rx   d 4 00 00 00 00
   1.726231 3  3BA             Rx   d 2 00 00
   1.727431 3  1BE             Rx   d 6 01 00 E4 FF 4C 01
   1.731022 3  28A             Rx   d 8 00 00 00 00 00 00 00 00
   1.731946 3  1CD             Rx   d 6 02 00 1C 00 EC 03
   1.733040 3  2CD             Rx   d 6 00 00 02 00 00 00
   1.735071 3  1BA             Rx   d 4 00 00 00 00
   1.736116 3  3BA             Rx   d 2 00 00
   1.737364 3  1BE             Rx   d 6 FD FF E4 FF 4C 01
   1.742385 3  28A             Rx   d 8 00 00 00 00 00 00 00 00
   1.743391 3  1CD             Rx   d 6 02 00 1B 00 EA 03
   1.743391 3  2CD             Rx   d 6 00 00 01 00 00 00
   1.745369 3  1BA             Rx   d 4 FF FF FF FF
   1.746399 3  3BA             Rx   d 2 00 00
   1.747479 3  1BE             Rx   d 6 FD FF E4 FF 4C 01
   1.752130 3  1CD             Rx   d 6 01 00 1B 00 ED 03
   1.753143 3  28A             Rx   d 8 00 00 00 00 F2 FF FF FF
   1.754132 3  2CD             Rx   d 6 00 00 00 00 00 00
   1.755416 3  1BA             Rx   d 4 00 00 00 00
   1.756526 3  3BA             Rx   d 2 00 00
   1.757647 3  1BE             Rx   d 6 FD FF E4 FF 4C 01
   1.762068 3  1CD             Rx   d 6 01 00 1C 00 E9 03
   1.763018 3  2CD             Rx   d 6 01 00 00 00 00 00
   1.765310 3  1BA             Rx   d 4 00 00 00 00
   1.766261 3  3BA             Rx   d 2 00 00
   1.766262 3  28A             Rx   d 8 00 00 00 00 F2 FF FF FF
   1.767543 3  1BE             Rx   d 6 FC FF E5 FF 4C 01
   1.773100 3  1CD             Rx   d 6 01 00 1C 00 EE 03
   1.774126 3  2CD             Rx   d 6 FE FF 00 00 00 00
   1.775449 3  28A             Rx   d 8 00 00 00 00 F2 FF FF FF
   1.776430 3  1BA             Rx   d 4 00 00 00 00
   1.776431 3  3BA             Rx   d 2 00 00
   1.777570 3  1BE             Rx   d 6 FC FF E5 FF 4C 01
   1.782047 3  1CD             Rx   d 6 02 00 1D 00 EC 03
   1.783350 3  2CD             Rx   d 6 00 00 01 00 01 00
   1.785443 3  1BA             Rx   d 4 FF FF FF FF
   1.786521 3  3BA             Rx   d 2 00 00
   1.787592 3  1BE             Rx   d 6 FF FF E6 FF 4C 01
   1.789980 3  28A             Rx   d 8 00 00 00 00 F2 FF FF FF
   1.792087 3  1CD             Rx   d 6 02 00 1C 00 EC 03
   1.793225 3  2CD             Rx   d 6 01 00 02 00 00 00
   1.795157 3  1BA             Rx   d 4 00 00 00 00
   1.796156 3  3BA             Rx   d 2 00 00
   1.797620 3  1BE             Rx   d 6 FF FF E6 FF 4C 01
   1.799828 3  28A             Rx   d 8 00 00 00 00 00 00 00 00
   1.802081 3  1CD             Rx   d 6 02 00 1D 00 EC 03
   1.803137 3  2CD             Rx   d 6 00 00 00 00 00 00
   1.805337 3  1BA             Rx   d 4 00 00 00 00
   1.806343 3  3BA             Rx   d 2 00 00
   1.807639 3  1BE             Rx   d 6 00 00 E5 FF 4C 01
   1.811247 3  28A             Rx   d 8 00 00 00 00 00 00 00 00
   1.812241 3  1CD             Rx   d 6 01 00 1A 00 EE 03
   1.812242 3  2CD             Rx   d 6 00 00 03 00 00 00
   1.815006 3  1BA             Rx   d 4 FF FF FF FF
   1.816035 3  3BA             Rx   d 2 00 00
   1.817658 3  1BE             Rx   d 6 00 00 E5 FF 4C 01
   1.820844 3  28A             Rx   d 8 00 00 00 00 00 00 00 00
   1.821859 3  1CD             Rx   d 6 02 00 1A 00 EC 03
   1.822854 3  2CD             Rx   d 6 00 00 00 00 01 00
   1.825342 3  1BA             Rx   d 4 00 00 00 00
   1.826365 3  3BA             Rx   d 2 00 00
   1.827691 3  1BE             Rx   d 6 FF FF E5 FF 4C 01
   1.831789 3  1CD             Rx   d 6 02 00 1A 00 EB 03
   1.832856 3  2CD             Rx   d 6 FF FF 00 00 03 00
   1.834525 3  28A             Rx   d 8 00 00 00 00 00 00 00 00
   1.835532 3  1BA             Rx   d 4 00 00 00 00
   1.835532 3  3BA             Rx   d 2 00 00
   1.837725 3  1BE             Rx   d 6 FF FF E5 FF 4C 01
   1.841827 3  1CD             Rx   d 6 01 00 1B 00 EC 03
   1.842940 3  2CD             Rx   d 6 01 00 00 00 01 00
   1.844383 3  28A             Rx   d 8 00 00 00 00 00 00 00 00
   1.845371 3  1BA             Rx   d 4 FF FF FF FF
   1.846374 3  3BA             Rx   d 2 00 00
   1.847746 3  1BE             Rx   d 6 FF FF E5 FF 4C 01
   1.851862 3  1CD             Rx   d 6 04 00 1A 00 EC 03
   1.852923 3  2CD             Rx   d 6 00 00 FF FF 00 00
   1.855436 3  1BA             Rx   d 4 FF FF FF FF
   1.856477 3  3BA             Rx   d 2 00 00
   1.857447 3  28A             Rx   d 8 00 00 00 00 00 00 00 00
   1.858479 3  1BE             Rx   d 6 FF FF E4 FF 4C 01
   1.861914 3  1CD             Rx   d 6 01 00 1C 00 ED 03
   1.862917 3  2CD             Rx   d 6 FF FF 00 00 01 00
   1.865266 3  1BA             Rx   d 4 00 00 00 00
   1.866258 3  3BA             Rx   d 2 00 00
   1.867281 3  28A             Rx   d 8 00 00 00 00 00 00 00 00
   1.868291 3  1BE             Rx   d 6 FF FF E4 FF 4C 01
   1.871880 3  1CD             Rx   d 6 02 00 1B 00 EA 03
   1.872883 3  2CD             Rx   d 6 00 00 02 00 00 00
   1.875208 3  1BA             Rx   d 4 FF FF FF FF
   1.876150 3  3BA             Rx   d 2 00 00
   1.877829 3  1BE             Rx   d 6 00 00 E4 FF 4C 01
   1.878859 3  28A             Rx   d 8 00 00 00 00 00 00 00 00
   1.881816 3  1CD             Rx   d 6 02 00 1B 00 EC 03
   1.882886 3  2CD             Rx   d 6 00 00 01 00 00 00
   1.885286 3  1BA             Rx   d 4 FF FF FF FF
   1.886284 3  3BA             Rx   d 2 00 00
   1.887867 3  1BE             Rx   d 6 00 00 E4 FF 4C 01
   1.888845 3  28A             Rx   d 8 00 00 00 00 00 00 00 00
   1.891922 3  1CD             Rx   d 6 02 00 1C 00 EC 03
   1.893213 3  2CD             Rx   d 6 00 00 FF FF 03 00
   1.895181 3  1BA             Rx   d 4 00 00 00 00
   1.896150 3  3BA             Rx   d 2 00 00
   1.897914 3  1BE             Rx   d 6 FF FF E5 FF 4C 01
   1.901069 3  28A             Rx   d 8 00 00 00 00 00 00 00 00
   1.902058 3  1CD             Rx   d 6 01 00 1C 00 E9 03
   1.902058 3  2CD             Rx   d 6 00 00 02 00 01 00
   1.905512 3  1BA             Rx   d 4 00 00 00 00
   1.906514 3  3BA             Rx   d 2 00 00
   1.907941 3  1BE             Rx   d 6 FF FF E5 FF 4C 01
   1.910794 3  28A             Rx   d 8 00 00 00 00 00 00 00 00
   1.911894 3  1CD             Rx   d 6 01 00 1B 00 EC 03
   1.912846 3  2CD             Rx   d 6 00 00 01 00 FF FF
   1.915415 3  1BA             Rx   d 4 00 00 00 00
   1.916393 3  3BA             Rx   d 2 00 00
   1.917896 3  1BE             Rx   d 6 FD FF E7 FF 4C 01
   1.923188 3  1CD             Rx   d 6 01 00 1C 00 ED 03
   1.924172 3  2CD             Rx   d 6 00 00 FF FF 00 00
   1.924172 3  28A             Rx   d 8 00 00 00 00 00 00 00 00
   1.925565 3  1BA             Rx   d 4 FF FF FF FF
   1.926577 3  3BA             Rx   d 2 00 00
   1.928041 3  1BE             Rx   d 6 FD FF E7 FF 4C 01
   1.931829 3  1CD             Rx   d 6 01 00 1C 00 EC 03
   1.932880 3  2CD             Rx   d 6 01 00 00 00 03 00
   1.934123 3  28A             Rx   d 8 0E 00 00 00 0E 00 00 00
   1.935402 3  1BA             Rx   d 4 FF FF FF FF
   1.936413 3  3BA             Rx   d 2 00 00
   1.938040 3  1BE             Rx   d 6 FD FF E7 FF 4C 01
   1.943266 3  1CD             Rx   d 6 00 00 1B 00 E8 03
   1.944139 3  2CD             Rx   d 6 01 00 00 00 00 00
   1.945159 3  1BA             Rx   d 4 FF FF FF FF
   1.946139 3  3BA             Rx   d 2 00 00
   1.946140 3  28A             Rx   d 8 0E 00 00 00 0E 00 00 00
   1.947988 3  1BE             Rx   d 6 FE FF E8 FF 4C 01
   1.951840 3  1CD             Rx   d 6 01 00 1B 00 EB 03
   1.953255 3  2CD             Rx   d 6 FF FF 00 00 FF FF
   1.955431 3  28A             Rx   d 8 0E 00 00 00 0E 00 00 00
   1.956458 3  1BA             Rx   d 4 00 00 00 00
   1.956459 3  3BA             Rx   d 2 00 00
   1.958216 3  1BE             Rx   d 6 FE FF E8 FF 4C 01
   1.961839 3  1CD             Rx   d 6 01 00 1D 00 ED 03
   1.962986 3  2CD             Rx   d 6 00 00 FF FF 00 00
   1.965559 3  1BA             Rx   d 4 00 00 00 00
   1.966502 3  3BA             Rx   d 2 00 00
   1.967617 3  28A             Rx   d 8 0E 00 00 00 0E 00 00 00
   1.968668 3  1BE             Rx   d 6 01 00 E8 FF 4C 01
   1.971829 3  1CD             Rx   d 6 03 00 1D 00 EC 03
   1.972824 3  2CD             Rx   d 6 00 00 FF FF 01 00
   1.975432 3  1BA             Rx   d 4 00 00 00 00
   1.976435 3  3BA             Rx   d 2 00 00
   1.977469 3  28A             Rx   d 8 0E 00 00 00 0E 00 00 00
   1.978497 3  1BE             Rx   d 6 01 00 E8 FF 4C 01
   1.981697 3  1CD             Rx   d 6 02 00 1C 00 EA 03
   1.982781 3  2CD             Rx   d 6 00 00 00 00 01 00
   1.985322 3  1BA             Rx   d 4 FF FF FF FF
   1.986290 3  3BA             Rx   d 2 00 00
   1.988196 3  1BE             Rx   d 6 02 00 E5 FF 4C 01
   1.989891 3  28A             Rx   d 8 0E 00 00 00 0E 00 00 00
   1.993190 3  1CD             Rx   d 6 01 00 1D 00 EB 03
   1.994204 3  2CD             Rx   d 6 FF FF 00 00 01 00
   1.995324 3  1BA             Rx   d 4 00 00 00 00
   1.996298 3  3BA             Rx   d 2 00 00
   1.998124 3  1BE             Rx   d 6 02 00 E5 FF 4C 01
   1.999528 3  28A             Rx   d 8 1C 00 00 00 0E 00 00 00
   2.001808 3  1CD             Rx   d 6 03 00 1C 00 EC 03
   2.003259 3  2CD             Rx   d 6 FE FF 01 00 00 00
   2.005565 3  1BA             Rx   d 4 00 00 00 00
   2.006585 3  3BA             Rx   d 2 00 00
   2.008172 3  1BE             Rx   d 6 00 00 E2 FF 4C 01
   2.011782 3  1CD             Rx   d 6 01 00 1B 00 EA 03
   2.013175 3  2CD             Rx   d 6 00 00 FF FF 00 00
   2.014316 3  28A             Rx   d 8 1C 00 00 00 0E 00 00 00
   2.015491 3  1BA             Rx   d 4 00 00 00 00
   2.016489 3  3BA             Rx   d 2 00 00
   2.018198 3  1BE             Rx   d 6 00 00 E2 FF 4C 01
   2.021793 3  1CD             Rx   d 6 03 00 1B 00 EA 03
   2.023273 3  2CD             Rx   d 6 FF FF 00 00 00 00
   2.024247 3  28A             Rx   d 8 1C 00 00 00 0E 00 00 00
   2.025283 3  1BA             Rx   d 4 00 00 00 00
   2.026343 3  3BA             Rx   d 2 00 00
   2.028285 3  1BE             Rx   d 6 FE FF E3 FF 4C 01
   2.031743 3  1CD             Rx   d 6 02 00 1C 00 ED 03
   2.032766 3  2CD             Rx   d 6 00 00 00 00 00 00
   2.035550 3  1BA             Rx   d 4 00 00 00 00
   2.036580 3  3BA             Rx   d 2 00 00
   2.036581 3  28A             Rx   d 8 1C 00 00 00 0E 00 00 00
   2.038315 3  1BE             Rx   d 6 FE FF E3 FF 4C 01
   2.041678 3  1CD             Rx   d 6 03 00 1B 00 ED 03
   2.042663 3  2CD             Rx   d 6 00 00 00 00 00 00
   2.045350 3  1BA             Rx   d 4 00 00 00 00
   2.046405 3  3BA             Rx   d 2 00 00
   2.046406 3  28A             Rx   d 8 1C 00 00 00 0E 00 00 00
   2.048374 3  1BE             Rx   d 6 FE FF E3 FF 4C 01
   2.051873 3  1CD             Rx   d 6 02 00 1B 00 EA 03
   2.052871 3  2CD             Rx   d 6 FF FF 01 00 FF FF
   2.055242 3  1BA             Rx   d 4 00 00 00 00
   2.056224 3  3BA             Rx   d 2 00 00
   2.057518 3  28A             Rx   d 8 1C 00 00 00 0E 00 00 00
   2.058508 3  1BE             Rx   d 6 FE FF E6 FF 4C 01
   2.061665 3  1CD             Rx   d 6 02 00 1B 00 EC 03
   2.062787 3  2CD             Rx   d 6 00 00 01 00 00 00
   2.065468 3  1BA             Rx   d 4 00 00 00 00
   2.066541 3  3BA             Rx   d 2 00 00
   2.067435 3  28A             Rx   d 8 1C 00 00 00 0E 00 00 00
   2.068574 3  1BE             Rx   d 6 FE FF E6 FF 4C 01
   2.072366 3  1CD             Rx   d 6 02 00 1B 00 EC 03
   2.073337 3  2CD             Rx   d 6 01 00 01 00 FF FF
   2.075610 3  1BA             Rx   d 4 00 00 00 00
   2.076603 3  3BA             Rx   d 2 00 00
   2.078485 3  1BE             Rx   d 6 FF FF E7 FF 4C 01
   2.079786 3  28A             Rx   d 8 1C 00 00 00 0E 00 00 00
   2.081730 3  1CD             Rx   d 6 02 00 1C 00 EC 03
   2.082789 3  2CD             Rx   d 6 02 00 00 00 00 00
   2.085449 3  1BA             Rx   d 4 FF FF FF FF
   2.086510 3  3BA             Rx   d 2 00 00
   2.088499 3  1BE             Rx   d 6 FF FF E7 FF 4C 01
   2.089563 3  28A             Rx   d 8 2A 00 00 00 0E 00 00 00
   2.091750 3  1CD             Rx   d 6 02 00 1D 00 EB 03
   2.092728 3  2CD             Rx   d 6 00 00 00 00 FF FF
   2.095349 3  1BA             Rx   d 4 FF FF FF FF
   2.096360 3  3BA             Rx   d 2 00 00
   2.098551 3  1BE             Rx   d 6 00 00 E7 FF 4C 01
   2.101898 3  28A             Rx   d 8 2A 00 00 00 0E 00 00 00
   2.102955 3  1CD             Rx   d 6 00 00 1C 00 EC 03
   2.102955 3  2CD             Rx   d 6 01 00 02 00 00 00
   2.105545 3  1BA             Rx   d 4 00 00 00 00
   2.106659 3  3BA             Rx   d 2 00 00
   2.108539 3  1BE             Rx   d 6 00 00 E7 FF 4C 01
   2.111716 3  28A             Rx   d 8 1C 00 00 00 1C 00 00 00
   2.112696 3  1CD             Rx   d 6 02 00 1B 00 EC 03
   2.112697 3  2CD             Rx   d 6 FF FF 02 00 00 00
   2.115551 3  1BA             Rx   d 4 00 00 00 00
   2.116646 3  3BA             Rx   d 2 00 00
   2.118625 3  1BE             Rx   d 6 00 00 E7 FF 4C 01
   2.121633 3  1CD             Rx   d 6 01 00 1B 00 EE 03
   2.122631 3  2CD             Rx   d 6 00 00 00 00 02 00
   2.124178 3  28A             Rx   d 8 1C 00 00 00 1C 00 00 00
   2.125429 3  1BA             Rx   d 4 00 00 00 00
   2.126550 3  3BA             Rx   d 2 00 00
   2.128624 3  1BE             Rx   d 6 FF FF E5 FF 4C 01
   2.131750 3  1CD             Rx   d 6 00 00 1A 00 EC 03
   2.132781 3  2CD             Rx   d 6 FF FF 00 00 00 00
   2.133866 3  28A             Rx   d 8 1C 00 00 00 1C 00 00 00
   2.135373 3  1BA             Rx   d 4 00 00 00 00
   2.136366 3  3BA             Rx   d 2 00 00
   2.138686 3  1BE             Rx   d 6 FF FF E5 FF 4C 01
   2.141625 3  1CD             Rx   d 6 02 00 1C 00 EC 03
   2.142610 3  2CD             Rx   d 6 FF FF FF FF 01 00
   2.145568 3  1BA             Rx   d 4 00 00 00 00
   2.146521 3  3BA             Rx   d 2 00 00
   2.146522 3  28A             Rx   d 8 1C 00 00 00 1C 00 00 00
   2.148646 3  1BE             Rx   d 6 FD FF E5 FF 4C 01
   2.152373 3  1CD             Rx   d 6 01 00 1B 00 EB 03
   2.153417 3  2CD             Rx   d 6 02 00 01 00 00 00
   2.155745 3  1BA             Rx   d 4 00 00 00 00
   2.156735 3  3BA             Rx   d 2 00 00
   2.156738 3  28A             Rx   d 8 1C 00 00 00 1C 00 00 00
   2.158787 3  1BE             Rx   d 6 FD FF E5 FF 4C 01
   2.161714 3  1CD             Rx   d 6 02 00 1B 00 EC 03
   2.162747 3  2CD             Rx   d 6 02 00 00 00 FF FF
   2.165546 3  1BA             Rx   d 4 00 00 00 00
   2.166522 3  3BA             Rx   d 2 00 00
   2.168830 3  1BE             Rx   d 6 FD FF E5 FF 4C 01
   2.169809 3  28A             Rx   d 8 1C 00 00 00 1C 00 00 00
   2.171627 3  1CD             Rx   d 6 02 00 19 00 EC 03
   2.172640 3  2CD             Rx   d 6 01 00 FE FF 00 00
   2.175737 3  1BA             Rx   d 4 FF FF FF FF
   2.176690 3  3BA             Rx   d 2 00 00
   2.178240 3  28A             Rx   d 8 1C 00 00 00 1C 00 00 00
   2.179275 3  1BE             Rx   d 6 FD FF E5 FF 4C 01
   2.182263 3  1CD             Rx   d 6 02 00 1B 00 EA 03
   2.183187 3  2CD             Rx   d 6 FF FF 01 00 00 00
   2.185607 3  1BA             Rx   d 4 00 00 00 00
   2.186599 3  3BA             Rx   d 2 00 00
   2.188795 3  1BE             Rx   d 6 FF FF E5 FF 4C 01
   2.190776 3  28A             Rx   d 8 1C 00 00 00 1C 00 00 00
   2.191805 3  1CD             Rx   d 6 01 00 1D 00 EC 03
   2.192806 3  2CD             Rx   d 6 00 00 FE FF 00 00
   2.195398 3  1BA             Rx   d 4 00 00 00 00
   2.196427 3  3BA             Rx   d 2 00 00
   2.198753 3  1BE             Rx   d 6 FF FF E5 FF 4C 01
   2.200530 3  28A             Rx   d 8 1C 00 00 00 1C 00 00 00
   2.201496 3  1CD             Rx   d 6 01 00 1C 00 ED 03
   2.202557 3  2CD             Rx   d 6 00 00 FE FF 00 00
   2.205606 3  1BA             Rx   d 4 00 00 00 00
   2.206624 3  3BA             Rx   d 2 00 00
   2.208844 3  1BE             Rx   d 6 FF FF E5 FF 4C 01
   2.211607 3  1CD             Rx   d 6 02 00 1B 00 EA 03
   2.212710 3  2CD             Rx   d 6 FF FF 00 00 01 00
   2.213988 3  28A             Rx   d 8 1C 00 00 00 1C 00 00 00
   2.215315 3  1BA             Rx   d 4 FF FF FF FF
   2.216382 3  3BA             Rx   d 2 00 00
   2.218909 3  1BE             Rx   d 6 00 00 E6 FF 4C 01
   2.221597 3  1CD             Rx   d 6 02 00 1A 00 EA 03
   2.222586 3  2CD             Rx   d 6 00 00 01 00 00 00
   2.223711 3  28A             Rx   d 8 1C 00 00 00 1C 00 00 00
   2.225693 3  1BA             Rx   d 4 00 00 00 00
   2.226690 3  3BA             Rx   d 2 00 00
   2.228838 3  1BE             Rx   d 6 00 00 E6 FF 4C 01
   2.232231 3  1CD             Rx   d 6 02 00 1B 00 E9 03
   2.233209 3  2CD             Rx   d 6 01 00 01 00 00 00
   2.235565 3  1BA             Rx   d 4 00 00 00 00
   2.236589 3  3BA             Rx   d 2 00 00
   2.237565 3  28A             Rx   d 8 1C 00 00 00 1C 00 00 00
   2.238976 3  1BE             Rx   d 6 FE FF E7 FF 4C 01
   2.241687 3  1CD             Rx   d 6 02 00 1A 00 EF 03
   2.242596 3  2CD             Rx   d 6 FF FF FF FF 00 00
   2.245364 3  1BA             Rx   d 4 00 00 00 00
   2.246388 3  3BA             Rx   d 2 00 00
   2.247421 3  28A             Rx   d 8 1C 00 00 00 1C 00 00 00
   2.248995 3  1BE             Rx   d 6 FE FF E7 FF 4C 01
   2.251608 3  1CD             Rx   d 6 01 00 1B 00 EC 03
   2.252535 3  2CD             Rx   d 6 01 00 03 00 00 00
   2.255714 3  1BA             Rx   d 4 00 00 00 00
   2.256710 3  3BA             Rx   d 2 00 00
   2.259019 3  1BE             Rx   d 6 FD FF E7 FF 4C 01
   2.260290 3  28A             Rx   d 8 1C 00 00 00 1C 00 00 00
   2.261492 3  1CD             Rx   d 6 02 00 1D 00 EA 03
   2.262494 3  2CD             Rx   d 6 02 00 00 00 FF FF
   2.265540 3  1BA             Rx   d 4 00 00 00 00
   2.266663 3  3BA             Rx   d 2 00 00
   2.269074 3  1BE             Rx   d 6 FD FF E7 FF 4C 01
   2.270072 3  28A             Rx   d 8 0E 00 00 00 1C 00 00 00
   2.271555 3  1CD             Rx   d 6 00 00 1C 00 EB 03
   2.272539 3  2CD             Rx   d 6 01 00 00 00 00 00
   2.275592 3  1BA             Rx   d 4 FF FF FF FF
   2.276534 3  3BA             Rx   d 2 00 00
   2.279032 3  1BE             Rx   d 6 FE FF E7 FF 4C 01
   2.281431 3  1CD             Rx   d 6 01 00 1D 00 EC 03
   2.282514 3  28A             Rx   d 8 0E 00 00 00 1C 00 00 00
   2.282515 3  2CD             Rx   d 6 00 00 FF FF 00 00
   2.285450 3  1BA             Rx   d 4 00 00 00 00
   2.286442 3  3BA             Rx   d 2 00 00
   2.289111 3  1BE             Rx   d 6 FE FF E7 FF 4C 01
   2.291655 3  28A             Rx   d 8 0E 00 00 00 1C 00 00 00
   2.292707 3  1CD             Rx   d 6 02 00 1C 00 EF 03
   2.292707 3  2CD             Rx   d 6 00 00 FE FF 00 00
   2.295708 3  1BA             Rx   d 4 00 00 00 00
   2.296689 3  3BA             Rx   d 2 00 00
   2.299176 3  1BE             Rx   d 6 FE FF E7 FF 4C 01
   2.301562 3  1CD             Rx   d 6 03 00 1B 00 EB 03
   2.302570 3  2CD             Rx   d 6 02 00 00 00 00 00
   2.303990 3  28A             Rx   d 8 0E 00 00 00 1C 00 00 00
   2.305557 3  1BA             Rx   d 4 00 00 00 00
   2.306556 3  3BA             Rx   d 2 00 00
   2.309185 3  1BE             Rx   d 6 FE FF E6 FF 4C 01
   2.311448 3  1CD             Rx   d 6 01 00 1B 00 EC 03
   2.312424 3  2CD             Rx   d 6 01 00 01 00 00 00
   2.313714 3  28A             Rx   d 8 0E 00 00 00 1C 00 00 00
   2.315484 3  1BA             Rx   d 4 FF FF FF FF
   2.316459 3  3BA             Rx   d 2 00 00
   2.319303 3  1BE             Rx   d 6 FE FF E6 FF 4C 01
   2.322073 3  1CD             Rx   d 6 01 00 1D 00 ED 03
   2.323303 3  2CD             Rx   d 6 00 00 02 00 02 00
   2.325778 3  1BA             Rx   d 4 FF FF FF FF
   2.326729 3  3BA             Rx   d 2 00 00
   2.328073 3  28A             Rx   d 8 0E 00 00 00 1C 00 00 00
   2.329308 3  1BE             Rx   d 6 FF FF E6 FF 4C 01
   2.331489 3  1CD             Rx   d 6 01 00 1C 00 ED 03
   2.332687 3  2CD             Rx   d 6 01 00 02 00 01 00
   2.335704 3  1BA             Rx   d 4 00 00 00 00
   2.336807 3  3BA             Rx   d 2 00 00
   2.338156 3  28A             Rx   d 8 1C 00 00 00 1C 00 00 00
   2.339274 3  1BE             Rx   d 6 FF FF E6 FF 4C 01
   2.341520 3  1CD             Rx   d 6 01 00 1A 00 E8 03
   2.342641 3  2CD             Rx   d 6 00 00 FE FF 00 00
   2.345494 3  1BA             Rx   d 4 00 00 00 00
   2.346444 3  3BA             Rx   d 2 00 00
   2.349227 3  1BE             Rx   d 6 FF FF E6 FF 4C 01
   2.350200 3  28A             Rx   d 8 1C 00 00 00 1C 00 00 00
   2.351555 3  1CD             Rx   d 6 02 00 1A 00 EA 03
   2.352631 3  2CD             Rx   d 6 00 00 00 00 00 00
   2.355879 3  1BA             Rx   d 4 00 00 00 00
   2.356865 3  3BA             Rx   d 2 00 00
   2.359248 3  28A             Rx   d 8 1C 00 00 00 1C 00 00 00
   2.360166 3  1BE             Rx   d 6 FF FF E6 FF 4C 01
   2.361457 3  1CD             Rx   d 6 02 00 19 00 ED 03
   2.362634 3  2CD             Rx   d 6 01 00 01 00 00 00
   2.365599 3  1BA             Rx   d 4 00 00 00 00
   2.366570 3  3BA             Rx   d 2 00 00
   2.369387 3  1BE             Rx   d 6 00 00 E5 FF 4C 01
   2.371980 3  1CD             Rx   d 6 01 00 19 00 EB 03
   2.373061 3  2CD             Rx   d 6 01 00 FF FF FF FF
   2.373062 3  28A             Rx   d 8 1C 00 00 00 1C 00 00 00
   2.375529 3  1BA             Rx   d 4 00 00 00 00
   2.376521 3  3BA             Rx   d 2 00 00
   2.379422 3  1BE             Rx   d 6 00 00 E5 FF 4C 01
   2.381448 3  1CD             Rx   d 6 01 00 1A 00 E9 03
   2.382486 3  2CD             Rx   d 6 01 00 02 00 00 00
   2.382487 3  28A             Rx   d 8 1C 00 00 00 1C 00 00 00
   2.385596 3  1BA             Rx   d 4 00 00 00 00
   2.386638 3  3BA             Rx   d 2 00 00
   2.389467 3  1BE             Rx   d 6 00 00 E5 FF 4C 01
   2.391424 3  1CD             Rx   d 6 00 00 1B 00 EA 03
   2.392600 3  2CD             Rx   d 6 03 00 03 00 FF FF
   2.393811 3  28A             Rx   d 8 1C 00 00 00 1C 00 00 00
   2.395592 3  1BA             Rx   d 4 FF FF FF FF
   2.396542 3  3BA             Rx   d 2 00 00
   2.399609 3  1BE             Rx   d 6 FE FF E4 FF 4C 01
   2.402090 3  1CD             Rx   d 6 01 00 1D 00 EE 03
   2.403094 3  2CD             Rx   d 6 00 00 02 00 00 00
   2.404062 3  28A             Rx   d 8 1C 00 00 00 1C 00 00 00
   2.405469 3  1BA             Rx   d 4 00 00 00 00
   2.406582 3  3BA             Rx   d 2 00 00
   2.409408 3  1BE             Rx   d 6 FE FF E4 FF 4C 01
   2.411450 3  1CD             Rx   d 6 01 00 1B 00 EC 03
   2.412394 3  2CD             Rx   d 6 01 00 00 00 03 00
   2.415773 3  1BA             Rx   d 4 00 00 00 00
   2.416775 3  28A             Rx   d 8 1C 00 00 00 1C 00 00 00
   2.416776 3  3BA             Rx   d 2 00 00
   2.419528 3  1BE             Rx   d 6 FD FF E5 FF 4C 01
   2.421344 3  1CD             Rx   d 6 02 00 1C 00 EA 03
   2.422308 3  2CD             Rx   d 6 00 00 03 00 00 00
   2.425593 3  1BA             Rx   d 4 00 00 00 00
   2.426636 3  28A             Rx   d 8 1C 00 00 00 1C 00 00 00
   2.426637 3  3BA             Rx   d 2 00 00
   2.429570 3  1BE             Rx   d 6 FD FF E5 FF 4C 01
   2.431486 3  1CD             Rx   d 6 01 00 1B 00 EC 03
   2.432513 3  2CD             Rx   d 6 02 00 00 00 00 00
   2.435822 3  1BA             Rx   d 4 00 00 00 00
   2.436849 3  3BA             Rx   d 2 00 00
   2.438219 3  28A             Rx   d 8 1C 00 00 00 1C 00 00 00
   2.439602 3  1BE             Rx   d 6 FC FF E7 FF 4C 01
   2.441387 3  1CD             Rx   d 6 01 00 1D 00 EE 03
   2.442314 3  2CD             Rx   d 6 00 00 02 00 FE FF
   2.445811 3  1BA             Rx   d 4 00 00 00 00
   2.446842 3  3BA             Rx   d 2 00 00
   2.447827 3  28A             Rx   d 8 1C 00 00 00 1C 00 00 00
   2.449602 3  1BE             Rx   d 6 FC FF E7 FF 4C 01
   2.451972 3  1CD             Rx   d 6 01 00 1B 00 ED 03
   2.452974 3  2CD             Rx   d 6 02 00 00 00 00 00
   2.455635 3  1BA             Rx   d 4 00 00 00 00
   2.456607 3  3BA             Rx   d 2 00 00
   2.459575 3  1BE             Rx   d 6 FE FF E8 FF 4C 01
   2.461216 3  28A             Rx   d 8 1C 00 00 00 1C 00 00 00
   2.462209 3  1CD             Rx   d 6 01 00 1D 00 EA 03
   2.462210 3  2CD             Rx   d 6 FF FF 00 00 FF FF
   2.465516 3  1BA             Rx   d 4 FF FF FF FF
   2.466513 3  3BA             Rx   d 2 00 00
   2.469679 3  1BE             Rx   d 6 FE FF E8 FF 4C 01
   2.470692 3  28A             Rx   d 8 1C 00 00 00 1C 00 00 00
   2.471645 3  1CD             Rx   d 6 02 00 1B 00 EA 03
   2.471645 3  2CD             Rx   d 6 00 00 01 00 00 00
   2.475527 3  1BA             Rx   d 4 00 00 00 00
   2.476511 3  3BA             Rx   d 2 00 00
   2.479661 3  1BE             Rx   d 6 FF FF E8 FF 4C 01
   2.481846 3  1CD             Rx   d 6 01 00 19 00 EC 03
   2.482823 3  2CD             Rx   d 6 01 00 01 00 00 00
   2.483816 3  28A             Rx   d 8 1C 00 00 00 1C 00 00 00
   2.485367 3  1BA             Rx   d 4 FF FF FF FF
   2.486401 3  3BA             Rx   d 2 00 00
   2.489641 3  1BE             Rx   d 6 FF FF E8 FF 4C 01
   2.491307 3  1CD             Rx   d 6 01 00 1B 00 EB 03
   2.492307 3  2CD             Rx   d 6 02 00 01 00 00 00
   2.493327 3  28A             Rx   d 8 1C 00 00 00 1C 00 00 00
   2.495716 3  1BA             Rx   d 4 00 00 00 00
   2.496703 3  3BA             Rx   d 2 00 00
   2.499680 3  1BE             Rx   d 6 FF FF E8 FF 4C 01
   2.501219 3  1CD             Rx   d 6 03 00 1C 00 EB 03
   2.502232 3  2CD             Rx   d 6 00 00 00 00 FF FF
   2.507128 3  28A             Rx   d 8 1C 00 00 00 1C 00 00 00
   2.507145 3  1BA             Rx   d 4 00 00 00 00
   2.507145 3  3BA             Rx   d 2 00 00
   2.509726 3  1BE             Rx   d 6 FF FF E6 FF 4C 01
   2.511339 3  1CD             Rx   d 6 01 00 1B 00 ED 03
   2.512334 3  2CD             Rx   d 6 FF FF FF FF 00 00
   2.514687 3  28A             Rx   d 8 1C 00 00 00 1C 00 00 00
   2.515756 3  1BA             Rx   d 4 00 00 00 00
   2.516862 3  3BA             Rx   d 2 00 00
   2.519846 3  1BE             Rx   d 6 FF FF E6 FF 4C 01
   2.521451 3  1CD             Rx   d 6 00 00 1B 00 EE 03
   2.522310 3  2CD             Rx   d 6 01 00 03 00 00 00
   2.525872 3  1BA             Rx   d 4 00 00 00 00
   2.526845 3  3BA             Rx   d 2 00 00
   2.527857 3  28A             Rx   d 8 1C 00 00 00 1C 00 00 00
   2.529941 3  1BE             Rx   d 6 00 00 E3 FF 4C 01
   2.531860 3  1CD             Rx   d 6 02 00 1B 00 EA 03
   2.532893 3  2CD             Rx   d 6 00 00 00 00 03 00
   2.535734 3  1BA             Rx   d 4 FF FF FF FF
   2.536726 3  3BA             Rx   d 2 00 00
   2.537679 3  28A             Rx   d 8 1C 00 00 00 1C 00 00 00
   2.539917 3  1BE             Rx   d 6 00 00 E3 FF 4C 01
   2.541560 3  1CD             Rx   d 6 01 00 1B 00 E9 03
   2.542317 3  2CD             Rx   d 6 02 00 01 00 00 00
   2.545748 3  1BA             Rx   d 4 00 00 00 00
   2.546722 3  3BA             Rx   d 2 00 00
   2.549836 3  1BE             Rx   d 6 00 00 E3 FF 4C 01
   2.550978 3  28A             Rx   d 8 1C 00 00 00 1C 00 00 00
   2.552041 3  1CD             Rx   d 6 02 00 1B 00 EC 03
   2.552041 3  2CD             Rx   d 6 02 00 00 00 00 00
   2.555772 3  1BA             Rx   d 4 FF FF FF FF
   2.556776 3  3BA             Rx   d 2 00 00
   2.560147 3  28A             Rx   d 8 0E 00 00 00 1C 00 00 00
   2.561113 3  1BE             Rx   d 6 00 00 E3 FF 4C 01
   2.562064 3  1CD             Rx   d 6 02 00 19 00 EC 03
   2.562927 3  2CD             Rx   d 6 00 00 03 00 00 00
   2.565658 3  1BA             Rx   d 4 00 00 00 00
   2.566605 3  3BA             Rx   d 2 00 00
   2.569996 3  1BE             Rx   d 6 00 00 E3 FF 4C 01
   2.571296 3  1CD             Rx   d 6 03 00 1C 00 EB 03
   2.572325 3  2CD             Rx   d 6 00 00 FF FF 00 00
   2.572325 3  28A             Rx   d 8 0E 00 00 00 1C 00 00 00
   2.575722 3  1BA             Rx   d 4 00 00 00 00
   2.576719 3  3BA             Rx   d 2 00 00
   2.580042 3  1BE             Rx   d 6 FF FF E6 FF 4C 01
   2.581106 3  1CD             Rx   d 6 02 00 1C 00 EC 03
   2.582160 3  2CD             Rx   d 6 00 00 00 00 00 00
   2.582160 3  28A             Rx   d 8 0E 00 00 00 1C 00 00 00
   2.585641 3  1BA             Rx   d 4 00 00 00 00
   2.586634 3  3BA             Rx   d 2 00 00
   2.590068 3  1BE             Rx   d 6 FF FF E6 FF 4C 01
   2.591348 3  1CD             Rx   d 6 01 00 1C 00 ED 03
   2.592347 3  2CD             Rx   d 6 00 00 01 00 FF FF
   2.594377 3  28A             Rx   d 8 0E 00 00 00 1C 00 00 00
   2.595731 3  1BA             Rx   d 4 00 00 00 00
   2.596865 3  3BA             Rx   d 2 00 00
   2.600110 3  1BE             Rx   d 6 FC FF E8 FF 4C 01
   2.601232 3  1CD             Rx   d 6 01 00 1B 00 EC 03
   2.602285 3  2CD             Rx   d 6 FF FF 00 00 00 00
   2.603293 3  28A             Rx   d 8 0E 00 00 00 0E 00 00 00
   2.605722 3  1BA             Rx   d 4 00 00 00 00
   2.606728 3  3BA             Rx   d 2 00 00
   2.610086 3  1BE             Rx   d 6 FC FF E8 FF 4C 01
   2.611323 3  1CD             Rx   d 6 01 00 1B 00 EC 03
   2.612359 3  2CD             Rx   d 6 00 00 00 00 01 00
   2.615668 3  1BA             Rx   d 4 00 00 00 00
   2.616656 3  28A             Rx   d 8 0E 00 00 00 0E 00 00 00
   2.616657 3  3BA             Rx   d 2 00 00
   2.620194 3  1BE             Rx   d 6 FC FF EA FF 4C 01
   2.621213 3  1CD             Rx   d 6 02 00 1D 00 EC 03
   2.622118 3  2CD             Rx   d 6 00 00 00 00 00 00
   2.625448 3  28A             Rx   d 8 1C 00 00 00 0E 00 00 00
   2.626471 3  1BA             Rx   d 4 00 00 00 00
   2.626471 3  3BA             Rx   d 2 00 00
   2.630190 3  1BE             Rx   d 6 FC FF EA FF 4C 01
   2.631791 3  1CD             Rx   d 6 01 00 1B 00 EE 03
   2.632822 3  2CD             Rx   d 6 00 00 02 00 01 00
   2.635824 3  1BA             Rx   d 4 FF FF FF FF
   2.636827 3  3BA             Rx   d 2 00 00
   2.639893 3  28A             Rx   d 8 1C 00 00 00 0E 00 00 00
   2.640886 3  1BE             Rx   d 6 FF FF E8 FF 4C 01
   2.641892 3  1CD             Rx   d 6 01 00 1C 00 EC 03
   2.642865 3  2CD             Rx   d 6 00 00 FE FF 00 00
   2.645823 3  1BA             Rx   d 4 00 00 00 00
   2.646786 3  3BA             Rx   d 2 00 00
   2.649792 3  28A             Rx   d 8 1C 00 00 00 0E 00 00 00
   2.650894 3  1BE             Rx   d 6 FF FF E8 FF 4C 01
   2.651863 3  1CD             Rx   d 6 01 00 1C 00 ED 03
   2.651864 3  2CD             Rx   d 6 01 00 00 00 00 00
   2.655721 3  1BA             Rx   d 4 00 00 00 00
   2.656699 3  3BA             Rx   d 2 00 00
   2.660439 3  1BE             Rx   d 6 FF FF E8 FF 4C 01
   2.661825 3  1CD             Rx   d 6 03 00 1B 00 EB 03
   2.662805 3  2CD             Rx   d 6 00 00 00 00 00 00
   2.662805 3  28A             Rx   d 8 1C 00 00 00 0E 00 00 00
   2.665911 3  1BA             Rx   d 4 00 00 00 00
   2.666926 3  3BA             Rx   d 2 00 00
   2.670436 3  1BE             Rx   d 6 02 00 E5 FF 4C 01
   2.671458 3  1CD             Rx   d 6 02 00 1B 00 EB 03
   2.672412 3  2CD             Rx   d 6 00 00 FF FF FF FF
   2.672413 3  28A             Rx   d 8 1C 00 00 00 0E 00 00 00
   2.676010 3  1BA             Rx   d 4 00 00 00 00
   2.676990 3  3BA             Rx   d 2 FF FF
   2.680352 3  1BE             Rx   d 6 02 00 E5 FF 4C 01
   2.681291 3  1CD             Rx   d 6 03 00 1A 00 ED 03
   2.682411 3  2CD             Rx   d 6 00 00 00 00 01 00
   2.684308 3  28A             Rx   d 8 1C 00 00 00 0E 00 00 00
   2.685810 3  1BA             Rx   d 4 00 00 00 00
   2.686842 3  3BA             Rx   d 2 FF FF
   2.690529 3  1BE             Rx   d 6 02 00 E2 FF 4C 01
   2.691535 3  1CD             Rx   d 6 03 00 19 00 EB 03
   2.692390 3  2CD             Rx   d 6 01 00 00 00 00 00
   2.694292 3  28A             Rx   d 8 1C 00 00 00 0E 00 00 00
   2.695955 3  1BA             Rx   d 4 00 00 00 00
   2.696923 3  3BA             Rx   d 2 FF FF
   2.700385 3  1BE             Rx   d 6 02 00 E2 FF 4C 01
   2.701420 3  1CD             Rx   d 6 03 00 1B 00 EA 03
   2.701421 3  2CD             Rx   d 6 00 00 03 00 02 00
   2.705684 3  1BA             Rx   d 4 FF FF FF FF
   2.706775 3  3BA             Rx   d 2 FF FF
   2.706776 3  28A             Rx   d 8 1C 00 00 00 0E 00 00 00
   2.710422 3  1BE             Rx   d 6 FF FF E3 FF 4C 01
   2.711505 3  1CD             Rx   d 6 02 00 1C 00 EC 03
   2.711506 3  2CD             Rx   d 6 00 00 01 00 00 00
   2.715439 3  28A             Rx   d 8 1C 00 00 00 0E 00 00 00
   2.716428 3  1BA             Rx   d 4 FF FF FF FF
   2.716428 3  3BA             Rx   d 2 FF FF
   2.720406 3  1BE             Rx   d 6 FF FF E3 FF 4C 01
   2.721694 3  1CD             Rx   d 6 02 00 19 00 EA 03
   2.722867 3  2CD             Rx   d 6 01 00 02 00 00 00
   2.725766 3  1BA             Rx   d 4 00 00 00 00
   2.726707 3  3BA             Rx   d 2 FF FF
   2.727970 3  28A             Rx   d 8 1C 00 00 00 0E 00 00 00
   2.730510 3  1BE             Rx   d 6 FE FF E5 FF 4C 01
   2.731874 3  1CD             Rx   d 6 01 00 1C 00 EA 03
   2.732745 3  2CD             Rx   d 6 00 00 02 00 00 00
   2.736037 3  1BA             Rx   d 4 00 00 00 00
   2.737012 3  3BA             Rx   d 2 FF FF
   2.738044 3  28A             Rx   d 8 1C 00 00 00 00 00 00 00
   2.740571 3  1BE             Rx   d 6 FE FF E5 FF 4C 01
   2.741633 3  1CD             Rx   d 6 02 00 1C 00 ED 03
   2.741634 3  2CD             Rx   d 6 01 00 00 00 00 00
   2.745885 3  1BA             Rx   d 4 00 00 00 00
   2.746823 3  3BA             Rx   d 2 FF FF
   2.750037 3  28A             Rx   d 8 1C 00 00 00 00 00 00 00
   2.750953 3  1BE             Rx   d 6 FE FF E5 FF 4C 01
   2.750953 3  1CD             Rx   d 6 01 00 1C 00 EB 03
   2.751990 3  2CD             Rx   d 6 01 00 03 00 01 00
   2.755556 3  1BA             Rx   d 4 00 00 00 00
   2.756511 3  3BA             Rx   d 2 FF FF
   2.759882 3  28A             Rx   d 8 1C 00 00 00 00 00 00 00
   2.760982 3  1BE             Rx   d 6 FE FF E6 FF 4C 01
   2.762139 3  1CD             Rx   d 6 03 00 1C 00 EC 03
   2.762141 3  2CD             Rx   d 6 01 00 FF FF 00 00
   2.766019 3  1BA             Rx   d 4 FF FF FF FF
   2.767029 3  3BA             Rx   d 2 FF FF
   2.770550 3  1BE             Rx   d 6 FE FF E6 FF 4C 01
   2.771651 3  1CD             Rx   d 6 01 00 1D 00 ED 03
   2.771651 3  2CD             Rx   d 6 00 00 00 00 00 00
   2.772543 3  28A             Rx   d 8 1C 00 00 00 00 00 00 00
   2.776077 3  1BA             Rx   d 4 00 00 00 00
   2.777093 3  3BA             Rx   d 2 00 00
   2.780866 3  1BE             Rx   d 6 FF FF E7 FF 4C 01
   2.781644 3  1CD             Rx   d 6 02 00 1C 00 EC 03
   2.781644 3  2CD             Rx   d 6 FF FF 03 00 01 00
   2.782601 3  28A             Rx   d 8 1C 00 00 00 0E 00 00 00
   2.785970 3  1BA             Rx   d 4 00 00 00 00
   2.787008 3  3BA             Rx   d 2 00 00
   2.790861 3  1BE             Rx   d 6 FF FF E7 FF 4C 01
   2.791840 3  1CD             Rx   d 6 01 00 1C 00 EC 03
   2.792686 3  2CD             Rx   d 6 00 00 01 00 00 00
   2.794428 3  28A             Rx   d 8 1C 00 00 00 0E 00 00 00
   2.795786 3  1BA             Rx   d 4 FF FF FF FF
   2.796760 3  3BA             Rx   d 2 00 00
   2.800714 3  1BE             Rx   d 6 00 00 E7 FF 4C 01
   2.801690 3  1CD             Rx   d 6 02 00 1B 00 EC 03
   2.801691 3  2CD             Rx   d 6 00 00 00 00 FF FF
   2.804120 3  28A             Rx   d 8 1C 00 00 00 0E 00 00 00
   2.805636 3  1BA             Rx   d 4 FF FF FF FF
   2.806630 3  3BA             Rx   d 2 00 00
   2.810637 3  1BE             Rx   d 6 00 00 E7 FF 4C 01
   2.811743 3  1CD             Rx   d 6 02 00 1C 00 EC 03
   2.811743 3  2CD             Rx   d 6 01 00 00 00 FF FF
   2.816004 3  1BA             Rx   d 4 00 00 00 00
   2.817017 3  3BA             Rx   d 2 00 00
   2.817017 3  28A             Rx   d 8 1C 00 00 00 0E 00 00 00
   2.820777 3  1BE             Rx   d 6 FF FF E6 FF 4C 01
   2.821691 3  1CD             Rx   d 6 01 00 1A 00 EA 03
   2.822793 3  2CD             Rx   d 6 01 00 FF FF FD FF
   2.825756 3  1BA             Rx   d 4 00 00 00 00
   2.826786 3  3BA             Rx   d 2 00 00
   2.826786 3  28A             Rx   d 8 1C 00 00 00 00 00 00 00
   2.830755 3  1BE             Rx   d 6 FF FF E6 FF 4C 01
   2.831724 3  1CD             Rx   d 6 02 00 1C 00 EE 03
   2.831724 3  2CD             Rx   d 6 00 00 01 00 00 00
   2.835988 3  1BA             Rx   d 4 00 00 00 00
   2.836999 3  3BA             Rx   d 2 00 00
   2.839616 3  28A             Rx   d 8 1C 00 00 00 00 00 00 00
   2.840843 3  1BE             Rx   d 6 FF FF E6 FF 4C 01
   2.841795 3  1CD             Rx   d 6 01 00 1B 00 EC 03
   2.841795 3  2CD             Rx   d 6 00 00 03 00 00 00
   2.846058 3  1BA             Rx   d 4 00 00 00 00
   2.847161 3  3BA             Rx   d 2 00 00
   2.849742 3  28A             Rx   d 8 1C 00 00 00 00 00 00 00
   2.851049 3  1BE             Rx   d 6 FE FF E3 FF 4C 01
   2.851984 3  1CD             Rx   d 6 00 00 1B 00 EC 03
   2.851985 3  2CD             Rx   d 6 00 00 02 00 02 00
   2.856062 3  1BA             Rx   d 4 FF FF FF FF
   2.857083 3  3BA             Rx   d 2 00 00
   2.861030 3  1BE             Rx   d 6 FE FF E3 FF 4C 01
   2.861911 3  1CD             Rx   d 6 00 00 1C 00 EC 03
   2.861912 3  2CD             Rx   d 6 00 00 00 00 00 00
   2.861913 3  28A             Rx   d 8 1C 00 00 00 00 00 00 00
   2.865901 3  1BA             Rx   d 4 00 00 00 00
   2.866944 3  3BA             Rx   d 2 00 00
   2.870993 3  1BE             Rx   d 6 FE FF E2 FF 4C 01
   2.872043 3  1CD             Rx   d 6 01 00 1B 00 EB 03
   2.872044 3  28A             Rx   d 8 1C 00 00 00 00 00 00 00
   2.872916 3  2CD             Rx   d 6 00 00 00 00 00 00
   2.875692 3  1BA             Rx   d 4 FF FF FF FF
   2.876796 3  3BA             Rx   d 2 00 00
   2.880939 3  1BE             Rx   d 6 FE FF E2 FF 4C 01
   2.882013 3  1CD             Rx   d 6 02 00 1A 00 EC 03
   2.882013 3  2CD             Rx   d 6 FF FF 00 00 FF FF
   2.884041 3  28A             Rx   d 8 1C 00 00 00 00 00 00 00
   2.885985 3  1BA             Rx   d 4 00 00 00 00
   2.887024 3  3BA             Rx   d 2 00 00
   2.891022 3  1BE             Rx   d 6 FF FF E4 FF 4C 01
   2.892004 3  1CD             Rx   d 6 02 00 1B 00 EB 03
   2.892005 3  2CD             Rx   d 6 00 00 00 00 01 00
   2.894008 3  28A             Rx   d 8 1C 00 00 00 00 00 00 00
   2.895796 3  1BA             Rx   d 4 00 00 00 00
   2.896777 3  3BA             Rx   d 2 00 00
   2.901014 3  1BE             Rx   d 6 FF FF E4 FF 4C 01
   2.901996 3  1CD             Rx   d 6 02 00 1C 00 EC 03
   2.901997 3  2CD             Rx   d 6 00 00 01 00 FF FF
   2.906015 3  1BA             Rx   d 4 00 00 00 00
   2.907003 3  28A             Rx   d 8 1C 00 00 00 00 00 00 00
   2.907004 3  3BA             Rx   d 2 00 00
   2.910927 3  1CD             Rx   d 6 03 00 1B 00 EB 03
   2.911890 3  1BE             Rx   d 6 FF FF E7 FF 4C 01
   2.911891 3  2CD             Rx   d 6 02 00 00 00 00 00
   2.915822 3  1BA             Rx   d 4 00 00 00 00
   2.916821 3  3BA             Rx   d 2 00 00
   2.916822 3  28A             Rx   d 8 1C 00 00 00 00 00 00 00
   2.920981 3  1CD             Rx   d 6 02 00 1A 00 EB 03
   2.921894 3  1BE             Rx   d 6 FF FF E7 FF 4C 01
   2.921894 3  2CD             Rx   d 6 02 00 00 00 00 00
   2.926125 3  1BA             Rx   d 4 00 00 00 00
   2.927126 3  3BA             Rx   d 2 00 00
   2.928116 3  28A             Rx   d 8 1C 00 00 00 00 00 00 00
   2.930991 3  1CD             Rx   d 6 02 00 1B 00 EC 03
   2.931945 3  2CD             Rx   d 6 01 00 00 00 FE FF
   2.931946 3  1BE             Rx   d 6 FE FF EA FF 4C 01
   2.935995 3  1BA             Rx   d 4 00 00 00 00
   2.936976 3  3BA             Rx   d 2 00 00
   2.937965 3  28A             Rx   d 8 1C 00 00 00 00 00 00 00
   2.940922 3  1CD             Rx   d 6 02 00 1C 00 EB 03
   2.941933 3  2CD             Rx   d 6 00 00 03 00 FF FF
   2.941933 3  1BE             Rx   d 6 FE FF EA FF 4C 01
   2.945767 3  1BA             Rx   d 4 FF FF FF FF
   2.946753 3  3BA             Rx   d 2 00 00
   2.949800 3  28A             Rx   d 8 1C 00 00 00 00 00 00 00
   2.950908 3  1CD             Rx   d 6 02 00 1B 00 EB 03
   2.951932 3  1BE             Rx   d 6 FE FF EA FF 4C 01
   2.951933 3  2CD             Rx   d 6 00 00 FF FF FF FF
   2.955899 3  1BA             Rx   d 4 00 00 00 00
   2.956911 3  3BA             Rx   d 2 00 00
   2.959507 3  28A             Rx   d 8 1C 00 00 00 00 00 00 00
   2.961028 3  1CD             Rx   d 6 01 00 1D 00 EE 03
   2.961922 3  2CD             Rx   d 6 00 00 02 00 00 00
   2.961923 3  1BE             Rx   d 6 FF FF EA FF 4C 01
   2.965965 3  1BA             Rx   d 4 00 00 00 00
   2.967041 3  3BA             Rx   d 2 00 00
   2.971024 3  1CD             Rx   d 6 01 00 1C 00 EC 03
   2.971996 3  2CD             Rx   d 6 00 00 00 00 01 00
   2.971997 3  1BE             Rx   d 6 FF FF EA FF 4C 01
   2.972903 3  28A             Rx   d 8 1C 00 00 00 00 00 00 00
   2.976021 3  1BA             Rx   d 4 FF FF FF FF
   2.977041 3  3BA             Rx   d 2 00 00
   2.981005 3  1CD             Rx   d 6 01 00 1C 00 EB 03
   2.982048 3  1BE             Rx   d 6 01 00 E9 FF 4C 01
   2.982048 3  2CD             Rx   d 6 01 00 03 00 00 00
   2.982049 3  28A             Rx   d 8 1C 00 00 00 00 00 00 00
   2.986201 3  1BA             Rx   d 4 00 00 00 00
   2.987147 3  3BA             Rx   d 2 00 00
   2.991025 3  1CD             Rx   d 6 01 00 1B 00 E9 03
   2.991934 3  2CD             Rx   d 6 02 00 00 00 00 00
   2.991934 3  1BE             Rx   d 6 01 00 E9 FF 4C 01
   2.995102 3  28A             Rx   d 8 1C 00 00 00 00 00 00 00
   2.996065 3  1BA             Rx   d 4 00 00 00 00
   2.996066 3  3BA             Rx   d 2 00 00
   3.001471 3  1BE             Rx   d 6 01 00 E6 FF 4C 01
   3.002240 3  1CD             Rx   d 6 01 00 1C 00 EE 03
   3.002241 3  2CD             Rx   d 6 00 00 01 00 01 00
   3.004123 3  28A             Rx   d 8 1C 00 00 00 00 00 00 00
   3.006033 3  1BA             Rx   d 4 00 00 00 00
   3.007050 3  3BA             Rx   d 2 00 00
   3.010938 3  1CD             Rx   d 6 02 00 1B 00 EC 03
   3.011959 3  1BE             Rx   d 6 01 00 E6 FF 4C 01
   3.011959 3  2CD             Rx   d 6 00 00 01 00 00 00
   3.015822 3  1BA             Rx   d 4 00 00 00 00
   3.016857 3  3BA             Rx   d 2 00 00
   3.016858 3  28A             Rx   d 8 1C 00 00 00 00 00 00 00
   3.020710 3  1CD             Rx   d 6 01 00 1C 00 EC 03
   3.021698 3  2CD             Rx   d 6 01 00 00 00 01 00
   3.021698 3  1BE             Rx   d 6 01 00 E6 FF 4C 01
   3.026093 3  28A             Rx   d 8 1C 00 00 00 00 00 00 00
   3.027079 3  1BA             Rx   d 4 FF FF FF FF
